 i-sweep         i(Vin)          i(Vout)         i(Vbias)        i(v1)           i(v2)           v(vbp)          v(vcn)         
 0.00000000e+00  0.00000000e+00  8.84238460e-09  1.00819193e-06  9.92073389e-07  1.00091466e-06  6.96033804e-01  7.27560311e-01 
 1.00000000e-09  1.00000000e-09  9.67933644e-09  1.00819190e-06  9.92185612e-07  1.00186384e-06  6.96033806e-01  7.27560310e-01 
 2.00000000e-09  2.00000000e-09  1.05348619e-08  1.00819193e-06  9.92281564e-07  1.00281532e-06  6.96033804e-01  7.27560311e-01 
 3.00000000e-09  3.00000000e-09  1.13935030e-08  1.00819192e-06  9.92374748e-07  1.00376714e-06  6.96033805e-01  7.27560312e-01 
 4.00000000e-09  4.00000000e-09  1.22588766e-08  1.00819193e-06  9.92462009e-07  1.00471979e-06  6.96033804e-01  7.27560311e-01 
 5.00000000e-09  5.00000000e-09  1.31303501e-08  1.00819192e-06  9.92543878e-07  1.00567315e-06  6.96033804e-01  7.27560314e-01 
 6.00000000e-09  6.00000000e-09  1.40072558e-08  1.00819192e-06  9.92620965e-07  1.00662714e-06  6.96033805e-01  7.27560310e-01 
 7.00000000e-09  7.00000000e-09  1.48890145e-08  1.00819193e-06  9.92693774e-07  1.00758171e-06  6.96033804e-01  7.27560311e-01 
 8.00000000e-09  8.00000000e-09  1.57751394e-08  1.00819192e-06  9.92762686e-07  1.00853675e-06  6.96033805e-01  7.27560312e-01 
 9.00000000e-09  9.00000000e-09  1.66652150e-08  1.00819193e-06  9.92828113e-07  1.00949226e-06  6.96033804e-01  7.27560309e-01 
 1.00000000e-08  1.00000000e-08  1.75588895e-08  1.00819192e-06  9.92890325e-07  1.01044815e-06  6.96033805e-01  7.27560311e-01 
 1.10000000e-08  1.10000000e-08  1.84558360e-08  1.00819191e-06  9.92949627e-07  1.01140438e-06  6.96033806e-01  7.27560309e-01 
 1.20000000e-08  1.20000000e-08  1.93557526e-08  1.00819191e-06  9.93006267e-07  1.01236096e-06  6.96033805e-01  7.27560311e-01 
 1.30000000e-08  1.30000000e-08  2.02584136e-08  1.00819190e-06  9.93060437e-07  1.01331779e-06  6.96033806e-01  7.27560311e-01 
 1.40000000e-08  1.40000000e-08  2.11636095e-08  1.00819192e-06  9.93112366e-07  1.01427491e-06  6.96033805e-01  7.27560311e-01 
 1.50000000e-08  1.50000000e-08  2.20711076e-08  1.00819191e-06  9.93162180e-07  1.01523223e-06  6.96033805e-01  7.27560312e-01 
 1.60000000e-08  1.60000000e-08  2.29807622e-08  1.00819192e-06  9.93210062e-07  1.01618978e-06  6.96033805e-01  7.27560309e-01 
 1.70000000e-08  1.70000000e-08  2.38924045e-08  1.00819192e-06  9.93256130e-07  1.01714749e-06  6.96033805e-01  7.27560312e-01 
 1.80000000e-08  1.80000000e-08  2.48058960e-08  1.00819192e-06  9.93300516e-07  1.01810537e-06  6.96033804e-01  7.27560310e-01 
 1.90000000e-08  1.90000000e-08  2.57210981e-08  1.00819192e-06  9.93343331e-07  1.01906339e-06  6.96033805e-01  7.27560311e-01 
 2.00000000e-08  2.00000000e-08  2.66379132e-08  1.00819193e-06  9.93384685e-07  1.02002155e-06  6.96033804e-01  7.27560311e-01 
 2.10000000e-08  2.10000000e-08  2.75562133e-08  1.00819191e-06  9.93424626e-07  1.02097980e-06  6.96033806e-01  7.27560313e-01 
 2.20000000e-08  2.20000000e-08  2.84759043e-08  1.00819192e-06  9.93463310e-07  1.02193818e-06  6.96033804e-01  7.27560311e-01 
 2.30000000e-08  2.30000000e-08  2.93969151e-08  1.00819192e-06  9.93500752e-07  1.02289663e-06  6.96033805e-01  7.27560310e-01 
 2.40000000e-08  2.40000000e-08  3.03191516e-08  1.00819193e-06  9.93537077e-07  1.02385519e-06  6.96033804e-01  7.27560313e-01 
 2.50000000e-08  2.50000000e-08  3.12425321e-08  1.00819191e-06  9.93572273e-07  1.02481377e-06  6.96033805e-01  7.27560312e-01 
 2.60000000e-08  2.60000000e-08  3.21669962e-08  1.00819193e-06  9.93606488e-07  1.02577245e-06  6.96033804e-01  7.27560309e-01 
 2.70000000e-08  2.70000000e-08  3.30924799e-08  1.00819190e-06  9.93639691e-07  1.02673115e-06  6.96033806e-01  7.27560311e-01 
 2.80000000e-08  2.80000000e-08  3.40189317e-08  1.00819191e-06  9.93672003e-07  1.02768991e-06  6.96033805e-01  7.27560310e-01 
 2.90000000e-08  2.90000000e-08  3.49462947e-08  1.00819191e-06  9.93703432e-07  1.02864870e-06  6.96033806e-01  7.27560311e-01 
 3.00000000e-08  3.00000000e-08  3.58744998e-08  1.00819193e-06  9.93734067e-07  1.02960754e-06  6.96033804e-01  7.27560311e-01 
 3.10000000e-08  3.10000000e-08  3.68035220e-08  1.00819192e-06  9.93763875e-07  1.03056637e-06  6.96033805e-01  7.27560313e-01 
 3.20000000e-08  3.20000000e-08  3.77332956e-08  1.00819192e-06  9.93792939e-07  1.03152522e-06  6.96033804e-01  7.27560310e-01 
 3.30000000e-08  3.30000000e-08  3.86638135e-08  1.00819190e-06  9.93821272e-07  1.03248407e-06  6.96033806e-01  7.27560312e-01 
 3.40000000e-08  3.40000000e-08  3.95950224e-08  1.00819192e-06  9.93848948e-07  1.03344295e-06  6.96033805e-01  7.27560311e-01 
 3.50000000e-08  3.50000000e-08  4.05268672e-08  1.00819191e-06  9.93875959e-07  1.03440181e-06  6.96033805e-01  7.27560312e-01 
 3.60000000e-08  3.60000000e-08  4.14593302e-08  1.00819191e-06  9.93902345e-07  1.03536067e-06  6.96033806e-01  7.27560311e-01 
 3.70000000e-08  3.70000000e-08  4.23923794e-08  1.00819193e-06  9.93928163e-07  1.03631954e-06  6.96033804e-01  7.27560311e-01 
 3.80000000e-08  3.80000000e-08  4.33260006e-08  1.00819190e-06  9.93953357e-07  1.03727835e-06  6.96033806e-01  7.27560311e-01 
 3.90000000e-08  3.90000000e-08  4.42601351e-08  1.00819193e-06  9.93978052e-07  1.03823718e-06  6.96033804e-01  7.27560310e-01 
 4.00000000e-08  4.00000000e-08  4.51947795e-08  1.00819192e-06  9.94002189e-07  1.03919596e-06  6.96033805e-01  7.27560312e-01 
 4.10000000e-08  4.10000000e-08  4.61298999e-08  1.00819191e-06  9.94025820e-07  1.04015472e-06  6.96033806e-01  7.27560309e-01 
 4.20000000e-08  4.20000000e-08  4.70654928e-08  1.00819191e-06  9.94048985e-07  1.04111347e-06  6.96033805e-01  7.27560313e-01 
 4.30000000e-08  4.30000000e-08  4.80015032e-08  1.00819192e-06  9.94071685e-07  1.04207218e-06  6.96033804e-01  7.27560310e-01 
 4.40000000e-08  4.40000000e-08  4.89379257e-08  1.00819193e-06  9.94093927e-07  1.04303085e-06  6.96033804e-01  7.27560313e-01 
 4.50000000e-08  4.50000000e-08  4.98747568e-08  1.00819192e-06  9.94115720e-07  1.04398947e-06  6.96033805e-01  7.27560310e-01 
 4.60000000e-08  4.60000000e-08  5.08119555e-08  1.00819191e-06  9.94137109e-07  1.04494806e-06  6.96033805e-01  7.27560312e-01 
 4.70000000e-08  4.70000000e-08  5.17495131e-08  1.00819193e-06  9.94158112e-07  1.04590663e-06  6.96033804e-01  7.27560310e-01 
 4.80000000e-08  4.80000000e-08  5.26874100e-08  1.00819193e-06  9.94178711e-07  1.04686512e-06  6.96033804e-01  7.27560311e-01 
 4.90000000e-08  4.90000000e-08  5.36256444e-08  1.00819192e-06  9.94198937e-07  1.04782358e-06  6.96033804e-01  7.27560311e-01 
 5.00000000e-08  5.00000000e-08  5.45641683e-08  1.00819192e-06  9.94218803e-07  1.04878198e-06  6.96033804e-01  7.27560312e-01 
 5.10000000e-08  5.10000000e-08  5.55029978e-08  1.00819191e-06  9.94238306e-07  1.04974031e-06  6.96033805e-01  7.27560308e-01 
 5.20000000e-08  5.20000000e-08  5.64421185e-08  1.00819193e-06  9.94257503e-07  1.05069863e-06  6.96033804e-01  7.27560312e-01 
 5.30000000e-08  5.30000000e-08  5.73814987e-08  1.00819191e-06  9.94276343e-07  1.05165685e-06  6.96033805e-01  7.27560312e-01 
 5.40000000e-08  5.40000000e-08  5.83211470e-08  1.00819192e-06  9.94294885e-07  1.05261504e-06  6.96033805e-01  7.27560310e-01 
 5.50000000e-08  5.50000000e-08  5.92610281e-08  1.00819191e-06  9.94313101e-07  1.05357314e-06  6.96033806e-01  7.27560311e-01 
 5.60000000e-08  5.60000000e-08  6.02011525e-08  1.00819192e-06  9.94331046e-07  1.05453122e-06  6.96033805e-01  7.27560310e-01 
 5.70000000e-08  5.70000000e-08  6.11414972e-08  1.00819192e-06  9.94348699e-07  1.05548921e-06  6.96033805e-01  7.27560312e-01 
 5.80000000e-08  5.80000000e-08  6.20820639e-08  1.00819191e-06  9.94366061e-07  1.05644713e-06  6.96033805e-01  7.27560309e-01 
 5.90000000e-08  5.90000000e-08  6.30228243e-08  1.00819192e-06  9.94383168e-07  1.05740501e-06  6.96033804e-01  7.27560313e-01 
 6.00000000e-08  6.00000000e-08  6.39637872e-08  1.00819192e-06  9.94399993e-07  1.05836280e-06  6.96033805e-01  7.27560309e-01 
 6.10000000e-08  6.10000000e-08  6.49049277e-08  1.00819192e-06  9.94416576e-07  1.05932052e-06  6.96033805e-01  7.27560314e-01 
 6.20000000e-08  6.20000000e-08  6.58462458e-08  1.00819191e-06  9.94432908e-07  1.06027817e-06  6.96033805e-01  7.27560310e-01 
 6.30000000e-08  6.30000000e-08  6.67877416e-08  1.00819192e-06  9.94449005e-07  1.06123576e-06  6.96033805e-01  7.27560312e-01 
 6.40000000e-08  6.40000000e-08  6.77293794e-08  1.00819190e-06  9.94464854e-07  1.06219326e-06  6.96033806e-01  7.27560311e-01 
 6.50000000e-08  6.50000000e-08  6.86711896e-08  1.00819192e-06  9.94480505e-07  1.06315071e-06  6.96033805e-01  7.27560311e-01 
 6.60000000e-08  6.60000000e-08  6.96131259e-08  1.00819191e-06  9.94495906e-07  1.06410806e-06  6.96033805e-01  7.27560312e-01 
 6.70000000e-08  6.70000000e-08  7.05552150e-08  1.00819191e-06  9.94511106e-07  1.06506534e-06  6.96033805e-01  7.27560309e-01 
 6.80000000e-08  6.80000000e-08  7.14974338e-08  1.00819190e-06  9.94526092e-07  1.06602254e-06  6.96033806e-01  7.27560311e-01 
 6.90000000e-08  6.90000000e-08  7.24397626e-08  1.00819191e-06  9.94540887e-07  1.06697967e-06  6.96033805e-01  7.27560309e-01 
 7.00000000e-08  7.00000000e-08  7.33822283e-08  1.00819192e-06  9.94555483e-07  1.06793673e-06  6.96033805e-01  7.27560311e-01 
 7.10000000e-08  7.10000000e-08  7.43247934e-08  1.00819192e-06  9.94569870e-07  1.06889369e-06  6.96033805e-01  7.27560309e-01 
 7.20000000e-08  7.20000000e-08  7.52674740e-08  1.00819191e-06  9.94584070e-07  1.06985057e-06  6.96033806e-01  7.27560311e-01 
 7.30000000e-08  7.30000000e-08  7.62102559e-08  1.00819193e-06  9.94598109e-07  1.07080738e-06  6.96033804e-01  7.27560311e-01 
 7.40000000e-08  7.40000000e-08  7.71531230e-08  1.00819191e-06  9.94611934e-07  1.07176408e-06  6.96033806e-01  7.27560312e-01 
 7.50000000e-08  7.50000000e-08  7.80960896e-08  1.00819192e-06  9.94625612e-07  1.07272073e-06  6.96033805e-01  7.27560310e-01 
 7.60000000e-08  7.60000000e-08  7.90391361e-08  1.00819192e-06  9.94639111e-07  1.07367728e-06  6.96033805e-01  7.27560312e-01 
 7.70000000e-08  7.70000000e-08  7.99822537e-08  1.00819191e-06  9.94652433e-07  1.07463372e-06  6.96033805e-01  7.27560312e-01 
 7.80000000e-08  7.80000000e-08  8.09254672e-08  1.00819192e-06  9.94665610e-07  1.07559011e-06  6.96033805e-01  7.27560310e-01 
 7.90000000e-08  7.90000000e-08  8.18687464e-08  1.00819191e-06  9.94678615e-07  1.07654639e-06  6.96033805e-01  7.27560313e-01 
 8.00000000e-08  8.00000000e-08  8.28120754e-08  1.00819193e-06  9.94691490e-07  1.07750260e-06  6.96033804e-01  7.27560310e-01 
 8.10000000e-08  8.10000000e-08  8.37554808e-08  1.00819192e-06  9.94704184e-07  1.07845869e-06  6.96033805e-01  7.27560313e-01 
 8.20000000e-08  8.20000000e-08  8.46989412e-08  1.00819192e-06  9.94716739e-07  1.07941471e-06  6.96033805e-01  7.27560310e-01 
 8.30000000e-08  8.30000000e-08  8.56424514e-08  1.00819191e-06  9.94729143e-07  1.08037063e-06  6.96033806e-01  7.27560312e-01 
 8.40000000e-08  8.40000000e-08  8.65860184e-08  1.00819191e-06  9.94741420e-07  1.08132647e-06  6.96033805e-01  7.27560309e-01 
 8.50000000e-08  8.50000000e-08  8.75296227e-08  1.00819191e-06  9.94753547e-07  1.08228221e-06  6.96033805e-01  7.27560311e-01 
 8.60000000e-08  8.60000000e-08  8.84732803e-08  1.00819191e-06  9.94765545e-07  1.08323786e-06  6.96033805e-01  7.27560308e-01 
 8.70000000e-08  8.70000000e-08  8.94169663e-08  1.00819192e-06  9.94777420e-07  1.08419342e-06  6.96033805e-01  7.27560312e-01 
 8.80000000e-08  8.80000000e-08  9.03606932e-08  1.00819192e-06  9.94789154e-07  1.08514888e-06  6.96033805e-01  7.27560310e-01 
 8.90000000e-08  8.90000000e-08  9.13044484e-08  1.00819192e-06  9.94800772e-07  1.08610426e-06  6.96033805e-01  7.27560313e-01 
 9.00000000e-08  9.00000000e-08  9.22482375e-08  1.00819191e-06  9.94812243e-07  1.08705952e-06  6.96033806e-01  7.27560309e-01 
 9.10000000e-08  9.10000000e-08  9.31920461e-08  1.00819192e-06  9.94823621e-07  1.08801470e-06  6.96033805e-01  7.27560313e-01 
 9.20000000e-08  9.20000000e-08  9.41358849e-08  1.00819191e-06  9.94834853e-07  1.08896978e-06  6.96033805e-01  7.27560309e-01 
 9.30000000e-08  9.30000000e-08  9.50797467e-08  1.00819191e-06  9.94845982e-07  1.08992476e-06  6.96033805e-01  7.27560313e-01 
 9.40000000e-08  9.40000000e-08  9.60236139e-08  1.00819192e-06  9.94857000e-07  1.09087966e-06  6.96033805e-01  7.27560310e-01 
 9.50000000e-08  9.50000000e-08  9.69674971e-08  1.00819192e-06  9.94867904e-07  1.09183444e-06  6.96033805e-01  7.27560312e-01 
 9.60000000e-08  9.60000000e-08  9.79113963e-08  1.00819190e-06  9.94878681e-07  1.09278912e-06  6.96033806e-01  7.27560311e-01 
 9.70000000e-08  9.70000000e-08  9.88552991e-08  1.00819192e-06  9.94889387e-07  1.09374373e-06  6.96033805e-01  7.27560310e-01 
 9.80000000e-08  9.80000000e-08  9.97992160e-08  1.00819190e-06  9.94899947e-07  1.09469820e-06  6.96033806e-01  7.27560311e-01 
 9.90000000e-08  9.90000000e-08  1.00743124e-07  1.00819192e-06  9.94910447e-07  1.09565261e-06  6.96033804e-01  7.27560310e-01 
 1.00000000e-07  1.00000000e-07  1.01687043e-07  1.00819192e-06  9.94920811e-07  1.09660690e-06  6.96033805e-01  7.27560311e-01 
 1.01000000e-07  1.01000000e-07  1.02630956e-07  1.00819191e-06  9.94931085e-07  1.09756108e-06  6.96033805e-01  7.27560311e-01 
 1.02000000e-07  1.02000000e-07  1.03574868e-07  1.00819191e-06  9.94941258e-07  1.09851517e-06  6.96033805e-01  7.27560311e-01 
 1.03000000e-07  1.03000000e-07  1.04518771e-07  1.00819192e-06  9.94951344e-07  1.09946916e-06  6.96033805e-01  7.27560310e-01 
 1.04000000e-07  1.04000000e-07  1.05462661e-07  1.00819192e-06  9.94961340e-07  1.10042305e-06  6.96033804e-01  7.27560314e-01 
 1.05000000e-07  1.05000000e-07  1.06406556e-07  1.00819192e-06  9.94971234e-07  1.10137683e-06  6.96033804e-01  7.27560310e-01 
 1.06000000e-07  1.06000000e-07  1.07350425e-07  1.00819190e-06  9.94981018e-07  1.10233049e-06  6.96033806e-01  7.27560309e-01 
 1.07000000e-07  1.07000000e-07  1.08294271e-07  1.00819191e-06  9.94990742e-07  1.10328407e-06  6.96033805e-01  7.27560311e-01 
 1.08000000e-07  1.08000000e-07  1.09238124e-07  1.00819192e-06  9.95000386e-07  1.10423755e-06  6.96033804e-01  7.27560310e-01 
 1.09000000e-07  1.09000000e-07  1.10181949e-07  1.00819193e-06  9.95009927e-07  1.10519092e-06  6.96033804e-01  7.27560311e-01 
 1.10000000e-07  1.10000000e-07  1.11125752e-07  1.00819193e-06  9.95019386e-07  1.10614418e-06  6.96033804e-01  7.27560311e-01 
 1.11000000e-07  1.11000000e-07  1.12069536e-07  1.00819192e-06  9.95028753e-07  1.10709733e-06  6.96033805e-01  7.27560313e-01 
 1.12000000e-07  1.12000000e-07  1.13013293e-07  1.00819192e-06  9.95038043e-07  1.10805039e-06  6.96033804e-01  7.27560310e-01 
 1.13000000e-07  1.13000000e-07  1.13957025e-07  1.00819193e-06  9.95047261e-07  1.10900333e-06  6.96033804e-01  7.27560311e-01 
 1.14000000e-07  1.14000000e-07  1.14900729e-07  1.00819192e-06  9.95056389e-07  1.10995616e-06  6.96033805e-01  7.27560310e-01 
 1.15000000e-07  1.15000000e-07  1.15844397e-07  1.00819192e-06  9.95065447e-07  1.11090889e-06  6.96033805e-01  7.27560312e-01 
 1.16000000e-07  1.16000000e-07  1.16788035e-07  1.00819191e-06  9.95074414e-07  1.11186150e-06  6.96033806e-01  7.27560311e-01 
 1.17000000e-07  1.17000000e-07  1.17731645e-07  1.00819192e-06  9.95083338e-07  1.11281403e-06  6.96033804e-01  7.27560310e-01 
 1.18000000e-07  1.18000000e-07  1.18675224e-07  1.00819192e-06  9.95092162e-07  1.11376643e-06  6.96033805e-01  7.27560310e-01 
 1.19000000e-07  1.19000000e-07  1.19618763e-07  1.00819191e-06  9.95100915e-07  1.11471873e-06  6.96033805e-01  7.27560312e-01 
 1.20000000e-07  1.20000000e-07  1.20562268e-07  1.00819193e-06  9.95109620e-07  1.11567093e-06  6.96033804e-01  7.27560311e-01 
 1.21000000e-07  1.21000000e-07  1.21505732e-07  1.00819191e-06  9.95118215e-07  1.11662300e-06  6.96033806e-01  7.27560311e-01 
 1.22000000e-07  1.22000000e-07  1.22449149e-07  1.00819193e-06  9.95126792e-07  1.11757499e-06  6.96033804e-01  7.27560313e-01 
 1.23000000e-07  1.23000000e-07  1.23392532e-07  1.00819190e-06  9.95135238e-07  1.11852682e-06  6.96033806e-01  7.27560310e-01 
 1.24000000e-07  1.24000000e-07  1.24335868e-07  1.00819192e-06  9.95143672e-07  1.11947859e-06  6.96033805e-01  7.27560311e-01 
 1.25000000e-07  1.25000000e-07  1.25279167e-07  1.00819191e-06  9.95152012e-07  1.12043023e-06  6.96033805e-01  7.27560312e-01 
 1.26000000e-07  1.26000000e-07  1.26222409e-07  1.00819193e-06  9.95160310e-07  1.12138178e-06  6.96033804e-01  7.27560313e-01 
 1.27000000e-07  1.27000000e-07  1.27165606e-07  1.00819191e-06  9.95168515e-07  1.12233318e-06  6.96033805e-01  7.27560310e-01 
 1.28000000e-07  1.28000000e-07  1.28108757e-07  1.00819191e-06  9.95176672e-07  1.12328449e-06  6.96033805e-01  7.27560312e-01 
 1.29000000e-07  1.29000000e-07  1.29051870e-07  1.00819191e-06  9.95184761e-07  1.12423568e-06  6.96033806e-01  7.27560309e-01 
 1.30000000e-07  1.30000000e-07  1.29994914e-07  1.00819192e-06  9.95192806e-07  1.12518678e-06  6.96033805e-01  7.27560313e-01 
 1.31000000e-07  1.31000000e-07  1.30937913e-07  1.00819192e-06  9.95200777e-07  1.12613775e-06  6.96033805e-01  7.27560311e-01 
 1.32000000e-07  1.32000000e-07  1.31880851e-07  1.00819191e-06  9.95208694e-07  1.12708861e-06  6.96033805e-01  7.27560309e-01 
 1.33000000e-07  1.33000000e-07  1.32823752e-07  1.00819191e-06  9.95216542e-07  1.12803935e-06  6.96033806e-01  7.27560310e-01 
 1.34000000e-07  1.34000000e-07  1.33766582e-07  1.00819192e-06  9.95224353e-07  1.12899000e-06  6.96033804e-01  7.27560311e-01 
 1.35000000e-07  1.35000000e-07  1.34709364e-07  1.00819192e-06  9.95232087e-07  1.12994051e-06  6.96033805e-01  7.27560311e-01 
 1.36000000e-07  1.36000000e-07  1.35652083e-07  1.00819191e-06  9.95239771e-07  1.13089091e-06  6.96033805e-01  7.27560310e-01 
 1.37000000e-07  1.37000000e-07  1.36594739e-07  1.00819191e-06  9.95247396e-07  1.13184120e-06  6.96033806e-01  7.27560312e-01 
 1.38000000e-07  1.38000000e-07  1.37537349e-07  1.00819192e-06  9.95254981e-07  1.13279139e-06  6.96033805e-01  7.27560309e-01 
 1.39000000e-07  1.39000000e-07  1.38479889e-07  1.00819193e-06  9.95262516e-07  1.13374146e-06  6.96033804e-01  7.27560311e-01 
 1.40000000e-07  1.40000000e-07  1.39422356e-07  1.00819190e-06  9.95269970e-07  1.13469139e-06  6.96033806e-01  7.27560307e-01 
 1.41000000e-07  1.41000000e-07  1.40364774e-07  1.00819192e-06  9.95277402e-07  1.13564124e-06  6.96033805e-01  7.27560313e-01 
 1.42000000e-07  1.42000000e-07  1.41307119e-07  1.00819192e-06  9.95284765e-07  1.13659095e-06  6.96033805e-01  7.27560310e-01 
 1.43000000e-07  1.43000000e-07  1.42249403e-07  1.00819191e-06  9.95292075e-07  1.13754055e-06  6.96033805e-01  7.27560311e-01 
 1.44000000e-07  1.44000000e-07  1.43191624e-07  1.00819192e-06  9.95299359e-07  1.13849004e-06  6.96033805e-01  7.27560310e-01 
 1.45000000e-07  1.45000000e-07  1.44133777e-07  1.00819192e-06  9.95306575e-07  1.13943941e-06  6.96033804e-01  7.27560311e-01 
 1.46000000e-07  1.46000000e-07  1.45075859e-07  1.00819192e-06  9.95313743e-07  1.14038867e-06  6.96033804e-01  7.27560312e-01 
 1.47000000e-07  1.47000000e-07  1.46017872e-07  1.00819191e-06  9.95320855e-07  1.14133779e-06  6.96033805e-01  7.27560310e-01 
 1.48000000e-07  1.48000000e-07  1.46959815e-07  1.00819193e-06  9.95327948e-07  1.14228683e-06  6.96033804e-01  7.27560311e-01 
 1.49000000e-07  1.49000000e-07  1.47901686e-07  1.00819192e-06  9.95334966e-07  1.14323571e-06  6.96033805e-01  7.27560312e-01 
 1.50000000e-07  1.50000000e-07  1.48843483e-07  1.00819191e-06  9.95341940e-07  1.14418449e-06  6.96033805e-01  7.27560310e-01 
 1.51000000e-07  1.51000000e-07  1.49785215e-07  1.00819191e-06  9.95348874e-07  1.14513316e-06  6.96033805e-01  7.27560310e-01 
 1.52000000e-07  1.52000000e-07  1.50726871e-07  1.00819191e-06  9.95355769e-07  1.14608170e-06  6.96033805e-01  7.27560311e-01 
 1.53000000e-07  1.53000000e-07  1.51668461e-07  1.00819191e-06  9.95362615e-07  1.14703013e-06  6.96033806e-01  7.27560309e-01 
