 i-sweep         i(Vin)          i(Vout)         i(Vbias)        i(v1)           i(v2)           v(Vbp)          v(Vcn)         
 0.00000000e+00  0.00000000e+00  1.00400683e-06  1.00819192e-06  3.55271368e-15  1.00374479e-06  6.96033804e-01  7.27560311e-01 
 1.00000000e-09  1.00000000e-09  1.00498213e-06  1.00819192e-06  0.00000000e+00  1.00471981e-06  6.96033805e-01  7.27560312e-01 
 2.00000000e-09  2.00000000e-09  1.00595727e-06  1.00819191e-06  3.55271368e-15  1.00569467e-06  6.96033805e-01  7.27560310e-01 
 3.00000000e-09  3.00000000e-09  1.00693236e-06  1.00819192e-06  7.10542736e-15  1.00666949e-06  6.96033805e-01  7.27560314e-01 
 4.00000000e-09  4.00000000e-09  1.00790737e-06  1.00819191e-06  1.06581410e-14  1.00764421e-06  6.96033806e-01  7.27560310e-01 
 5.00000000e-09  5.00000000e-09  1.00888232e-06  1.00819193e-06  3.55271368e-15  1.00861888e-06  6.96033804e-01  7.27560313e-01 
 6.00000000e-09  6.00000000e-09  1.00985715e-06  1.00819190e-06  3.55271368e-15  1.00959343e-06  6.96033806e-01  7.27560310e-01 
 7.00000000e-09  7.00000000e-09  1.01083193e-06  1.00819193e-06  7.10542736e-15  1.01056793e-06  6.96033804e-01  7.27560313e-01 
 8.00000000e-09  8.00000000e-09  1.01180661e-06  1.00819192e-06  3.55271368e-15  1.01154232e-06  6.96033805e-01  7.27560310e-01 
 9.00000000e-09  9.00000000e-09  1.01278120e-06  1.00819191e-06  3.55271368e-15  1.01251663e-06  6.96033805e-01  7.27560312e-01 
 1.00000000e-08  1.00000000e-08  1.01375573e-06  1.00819193e-06  0.00000000e+00  1.01349087e-06  6.96033804e-01  7.27560311e-01 
 1.10000000e-08  1.10000000e-08  1.01473015e-06  1.00819192e-06  7.10542736e-15  1.01446501e-06  6.96033804e-01  7.27560313e-01 
 1.20000000e-08  1.20000000e-08  1.01570448e-06  1.00819192e-06  7.10542736e-15  1.01543907e-06  6.96033805e-01  7.27560309e-01 
 1.30000000e-08  1.30000000e-08  1.01667872e-06  1.00819190e-06  3.55271368e-15  1.01641302e-06  6.96033806e-01  7.27560311e-01 
 1.40000000e-08  1.40000000e-08  1.01765290e-06  1.00819191e-06  7.10542736e-15  1.01738692e-06  6.96033805e-01  7.27560310e-01 
 1.50000000e-08  1.50000000e-08  1.01862699e-06  1.00819191e-06  3.55271368e-15  1.01836072e-06  6.96033805e-01  7.27560311e-01 
 1.60000000e-08  1.60000000e-08  1.01960097e-06  1.00819190e-06  3.55271368e-15  1.01933443e-06  6.96033806e-01  7.27560311e-01 
 1.70000000e-08  1.70000000e-08  1.02057489e-06  1.00819191e-06  3.55271368e-15  1.02030807e-06  6.96033805e-01  7.27560309e-01 
 1.80000000e-08  1.80000000e-08  1.02154872e-06  1.00819191e-06  3.55271368e-15  1.02128162e-06  6.96033805e-01  7.27560310e-01 
 1.90000000e-08  1.90000000e-08  1.02252245e-06  1.00819191e-06  7.10542736e-15  1.02225507e-06  6.96033806e-01  7.27560309e-01 
 2.00000000e-08  2.00000000e-08  1.02349612e-06  1.00819191e-06  7.10542736e-15  1.02322845e-06  6.96033805e-01  7.27560311e-01 
 2.10000000e-08  2.10000000e-08  1.02446969e-06  1.00819191e-06  3.55271368e-15  1.02420174e-06  6.96033805e-01  7.27560312e-01 
 2.20000000e-08  2.20000000e-08  1.02544318e-06  1.00819192e-06  3.55271368e-15  1.02517494e-06  6.96033805e-01  7.27560309e-01 
 2.30000000e-08  2.30000000e-08  1.02641657e-06  1.00819191e-06  7.10542736e-15  1.02614805e-06  6.96033806e-01  7.27560311e-01 
 2.40000000e-08  2.40000000e-08  1.02738987e-06  1.00819191e-06  7.10542736e-15  1.02712108e-06  6.96033806e-01  7.27560310e-01 
 2.50000000e-08  2.50000000e-08  1.02836311e-06  1.00819192e-06  3.55271368e-15  1.02809403e-06  6.96033805e-01  7.27560312e-01 
 2.60000000e-08  2.60000000e-08  1.02933626e-06  1.00819193e-06  3.55271368e-15  1.02906689e-06  6.96033804e-01  7.27560311e-01 
 2.70000000e-08  2.70000000e-08  1.03030930e-06  1.00819191e-06  3.55271368e-15  1.03003965e-06  6.96033805e-01  7.27560313e-01 
 2.80000000e-08  2.80000000e-08  1.03128226e-06  1.00819192e-06  7.10542736e-15  1.03101234e-06  6.96033805e-01  7.27560311e-01 
 2.90000000e-08  2.90000000e-08  1.03225512e-06  1.00819191e-06  7.10542736e-15  1.03198492e-06  6.96033805e-01  7.27560312e-01 
 3.00000000e-08  3.00000000e-08  1.03322792e-06  1.00819193e-06  3.55271368e-15  1.03295744e-06  6.96033804e-01  7.27560312e-01 
 3.10000000e-08  3.10000000e-08  1.03420061e-06  1.00819191e-06  3.55271368e-15  1.03392984e-06  6.96033805e-01  7.27560313e-01 
 3.20000000e-08  3.20000000e-08  1.03517323e-06  1.00819192e-06  7.10542736e-15  1.03490218e-06  6.96033805e-01  7.27560311e-01 
 3.30000000e-08  3.30000000e-08  1.03614576e-06  1.00819192e-06  3.55271368e-15  1.03587443e-06  6.96033805e-01  7.27560312e-01 
 3.40000000e-08  3.40000000e-08  1.03711821e-06  1.00819193e-06  0.00000000e+00  1.03684659e-06  6.96033804e-01  7.27560310e-01 
 3.50000000e-08  3.50000000e-08  1.03809055e-06  1.00819191e-06  0.00000000e+00  1.03781864e-06  6.96033805e-01  7.27560310e-01 
 3.60000000e-08  3.60000000e-08  1.03906281e-06  1.00819191e-06  0.00000000e+00  1.03879062e-06  6.96033805e-01  7.27560312e-01 
 3.70000000e-08  3.70000000e-08  1.04003496e-06  1.00819190e-06  3.55271368e-15  1.03976250e-06  6.96033806e-01  7.27560309e-01 
 3.80000000e-08  3.80000000e-08  1.04100706e-06  1.00819192e-06  0.00000000e+00  1.04073431e-06  6.96033805e-01  7.27560309e-01 
 3.90000000e-08  3.90000000e-08  1.04197906e-06  1.00819192e-06  3.55271368e-15  1.04170603e-06  6.96033805e-01  7.27560313e-01 
 4.00000000e-08  4.00000000e-08  1.04295095e-06  1.00819191e-06  7.10542736e-15  1.04267765e-06  6.96033805e-01  7.27560310e-01 
 4.10000000e-08  4.10000000e-08  1.04392278e-06  1.00819192e-06  7.10542736e-15  1.04364919e-06  6.96033805e-01  7.27560308e-01 
 4.20000000e-08  4.20000000e-08  1.04489449e-06  1.00819191e-06  7.10542736e-15  1.04462063e-06  6.96033805e-01  7.27560310e-01 
 4.30000000e-08  4.30000000e-08  1.04586615e-06  1.00819193e-06  7.10542736e-15  1.04559200e-06  6.96033804e-01  7.27560313e-01 
 4.40000000e-08  4.40000000e-08  1.04683767e-06  1.00819190e-06  3.55271368e-15  1.04656324e-06  6.96033806e-01  7.27560309e-01 
 4.50000000e-08  4.50000000e-08  1.04780916e-06  1.00819193e-06  0.00000000e+00  1.04753444e-06  6.96033804e-01  7.27560313e-01 
 4.60000000e-08  4.60000000e-08  1.04878051e-06  1.00819191e-06  3.55271368e-15  1.04850551e-06  6.96033806e-01  7.27560310e-01 
 4.70000000e-08  4.70000000e-08  1.04975179e-06  1.00819191e-06  3.55271368e-15  1.04947652e-06  6.96033805e-01  7.27560311e-01 
 4.80000000e-08  4.80000000e-08  1.05072299e-06  1.00819192e-06  3.55271368e-15  1.05044743e-06  6.96033805e-01  7.27560309e-01 
 4.90000000e-08  4.90000000e-08  1.05169409e-06  1.00819191e-06  3.55271368e-15  1.05141825e-06  6.96033805e-01  7.27560310e-01 
 5.00000000e-08  5.00000000e-08  1.05266511e-06  1.00819192e-06  3.55271368e-15  1.05238898e-06  6.96033805e-01  7.27560311e-01 
 5.10000000e-08  5.10000000e-08  1.05363602e-06  1.00819191e-06  7.10542736e-15  1.05335961e-06  6.96033805e-01  7.27560310e-01 
 5.20000000e-08  5.20000000e-08  1.05460686e-06  1.00819193e-06  3.55271368e-15  1.05433018e-06  6.96033804e-01  7.27560311e-01 
 5.30000000e-08  5.30000000e-08  1.05557759e-06  1.00819192e-06  3.55271368e-15  1.05530062e-06  6.96033805e-01  7.27560311e-01 
 5.40000000e-08  5.40000000e-08  1.05654823e-06  1.00819191e-06  3.55271368e-15  1.05627098e-06  6.96033805e-01  7.27560308e-01 
 5.50000000e-08  5.50000000e-08  1.05751881e-06  1.00819193e-06  3.55271368e-15  1.05724128e-06  6.96033804e-01  7.27560313e-01 
 5.60000000e-08  5.60000000e-08  1.05848926e-06  1.00819192e-06  7.10542736e-15  1.05821146e-06  6.96033804e-01  7.27560310e-01 
 5.70000000e-08  5.70000000e-08  1.05945964e-06  1.00819192e-06  3.55271368e-15  1.05918155e-06  6.96033804e-01  7.27560311e-01 
 5.80000000e-08  5.80000000e-08  1.06042992e-06  1.00819191e-06  0.00000000e+00  1.06015154e-06  6.96033806e-01  7.27560309e-01 
 5.90000000e-08  5.90000000e-08  1.06140012e-06  1.00819192e-06  3.55271368e-15  1.06112146e-06  6.96033804e-01  7.27560311e-01 
 6.00000000e-08  6.00000000e-08  1.06237020e-06  1.00819190e-06  3.55271368e-15  1.06209127e-06  6.96033806e-01  7.27560311e-01 
 6.10000000e-08  6.10000000e-08  1.06334023e-06  1.00819192e-06  3.55271368e-15  1.06306101e-06  6.96033804e-01  7.27560311e-01 
 6.20000000e-08  6.20000000e-08  1.06431016e-06  1.00819192e-06  0.00000000e+00  1.06403065e-06  6.96033805e-01  7.27560311e-01 
 6.30000000e-08  6.30000000e-08  1.06527996e-06  1.00819192e-06  7.10542736e-15  1.06500018e-06  6.96033805e-01  7.27560311e-01 
 6.40000000e-08  6.40000000e-08  1.06624968e-06  1.00819190e-06  7.10542736e-15  1.06596962e-06  6.96033806e-01  7.27560312e-01 
 6.50000000e-08  6.50000000e-08  1.06721934e-06  1.00819192e-06  7.10542736e-15  1.06693900e-06  6.96033805e-01  7.27560310e-01 
 6.60000000e-08  6.60000000e-08  1.06818890e-06  1.00819193e-06  3.55271368e-15  1.06790828e-06  6.96033804e-01  7.27560313e-01 
 6.70000000e-08  6.70000000e-08  1.06915835e-06  1.00819192e-06  3.55271368e-15  1.06887744e-06  6.96033805e-01  7.27560311e-01 
 6.80000000e-08  6.80000000e-08  1.07012772e-06  1.00819192e-06  3.55271368e-15  1.06984652e-06  6.96033805e-01  7.27560313e-01 
 6.90000000e-08  6.90000000e-08  1.07109697e-06  1.00819190e-06  3.55271368e-15  1.07081550e-06  6.96033806e-01  7.27560308e-01 
 7.00000000e-08  7.00000000e-08  1.07206614e-06  1.00819191e-06  7.10542736e-15  1.07178440e-06  6.96033806e-01  7.27560311e-01 
 7.10000000e-08  7.10000000e-08  1.07303525e-06  1.00819193e-06  7.10542736e-15  1.07275322e-06  6.96033804e-01  7.27560311e-01 
 7.20000000e-08  7.20000000e-08  1.07400423e-06  1.00819191e-06  3.55271368e-15  1.07372192e-06  6.96033805e-01  7.27560312e-01 
 7.30000000e-08  7.30000000e-08  1.07497314e-06  1.00819192e-06  0.00000000e+00  1.07469054e-06  6.96033805e-01  7.27560312e-01 
 7.40000000e-08  7.40000000e-08  1.07594196e-06  1.00819193e-06  0.00000000e+00  1.07565908e-06  6.96033804e-01  7.27560313e-01 
 7.50000000e-08  7.50000000e-08  1.07691065e-06  1.00819191e-06  3.55271368e-15  1.07662749e-06  6.96033805e-01  7.27560310e-01 
 7.60000000e-08  7.60000000e-08  1.07787929e-06  1.00819193e-06  0.00000000e+00  1.07759584e-06  6.96033804e-01  7.27560312e-01 
 7.70000000e-08  7.70000000e-08  1.07884780e-06  1.00819192e-06  3.55271368e-15  1.07856408e-06  6.96033805e-01  7.27560312e-01 
 7.80000000e-08  7.80000000e-08  1.07981622e-06  1.00819191e-06  7.10542736e-15  1.07953222e-06  6.96033805e-01  7.27560309e-01 
 7.90000000e-08  7.90000000e-08  1.08078457e-06  1.00819192e-06  3.55271368e-15  1.08050029e-06  6.96033804e-01  7.27560313e-01 
 8.00000000e-08  8.00000000e-08  1.08175281e-06  1.00819193e-06  3.55271368e-15  1.08146825e-06  6.96033804e-01  7.27560311e-01 
 8.10000000e-08  8.10000000e-08  1.08272094e-06  1.00819192e-06  1.06581410e-14  1.08243611e-06  6.96033805e-01  7.27560312e-01 
 8.20000000e-08  8.20000000e-08  1.08368899e-06  1.00819191e-06  7.10542736e-15  1.08340387e-06  6.96033805e-01  7.27560309e-01 
 8.30000000e-08  8.30000000e-08  1.08465694e-06  1.00819191e-06  3.55271368e-15  1.08437154e-06  6.96033805e-01  7.27560312e-01 
 8.40000000e-08  8.40000000e-08  1.08562482e-06  1.00819192e-06  3.55271368e-15  1.08533913e-06  6.96033805e-01  7.27560313e-01 
 8.50000000e-08  8.50000000e-08  1.08659258e-06  1.00819192e-06  7.10542736e-15  1.08630662e-06  6.96033805e-01  7.27560310e-01 
 8.60000000e-08  8.60000000e-08  1.08756026e-06  1.00819192e-06  7.10542736e-15  1.08727401e-06  6.96033804e-01  7.27560312e-01 
 8.70000000e-08  8.70000000e-08  1.08852784e-06  1.00819193e-06  3.55271368e-15  1.08824131e-06  6.96033804e-01  7.27560310e-01 
 8.80000000e-08  8.80000000e-08  1.08949531e-06  1.00819192e-06  3.55271368e-15  1.08920850e-06  6.96033804e-01  7.27560313e-01 
 8.90000000e-08  8.90000000e-08  1.09046270e-06  1.00819191e-06  3.55271368e-15  1.09017560e-06  6.96033805e-01  7.27560309e-01 
 9.00000000e-08  9.00000000e-08  1.09142999e-06  1.00819193e-06  3.55271368e-15  1.09114262e-06  6.96033804e-01  7.27560313e-01 
 9.10000000e-08  9.10000000e-08  1.09239719e-06  1.00819192e-06  3.55271368e-15  1.09210953e-06  6.96033804e-01  7.27560311e-01 
 9.20000000e-08  9.20000000e-08  1.09336427e-06  1.00819191e-06  3.55271368e-15  1.09307633e-06  6.96033806e-01  7.27560311e-01 
 9.30000000e-08  9.30000000e-08  1.09433128e-06  1.00819191e-06  3.55271368e-15  1.09404306e-06  6.96033805e-01  7.27560309e-01 
 9.40000000e-08  9.40000000e-08  1.09529818e-06  1.00819191e-06  1.06581410e-14  1.09500968e-06  6.96033805e-01  7.27560311e-01 
 9.50000000e-08  9.50000000e-08  1.09626499e-06  1.00819191e-06  3.55271368e-15  1.09597621e-06  6.96033805e-01  7.27560312e-01 
 9.60000000e-08  9.60000000e-08  1.09723171e-06  1.00819191e-06  7.10542736e-15  1.09694264e-06  6.96033805e-01  7.27560310e-01 
 9.70000000e-08  9.70000000e-08  1.09819832e-06  1.00819191e-06  7.10542736e-15  1.09790897e-06  6.96033805e-01  7.27560308e-01 
 9.80000000e-08  9.80000000e-08  1.09916485e-06  1.00819191e-06  3.55271368e-15  1.09887521e-06  6.96033805e-01  7.27560311e-01 
 9.90000000e-08  9.90000000e-08  1.10013126e-06  1.00819192e-06  3.55271368e-15  1.09984136e-06  6.96033805e-01  7.27560309e-01 
 1.00000000e-07  1.00000000e-07  1.10109759e-06  1.00819191e-06  0.00000000e+00  1.10080739e-06  6.96033805e-01  7.27560311e-01 
 1.01000000e-07  1.01000000e-07  1.10206381e-06  1.00819191e-06  3.55271368e-15  1.10177334e-06  6.96033806e-01  7.27560309e-01 
 1.02000000e-07  1.02000000e-07  1.10302994e-06  1.00819191e-06  7.10542736e-15  1.10273919e-06  6.96033805e-01  7.27560310e-01 
 1.03000000e-07  1.03000000e-07  1.10399598e-06  1.00819191e-06  3.55271368e-15  1.10370494e-06  6.96033805e-01  7.27560311e-01 
 1.04000000e-07  1.04000000e-07  1.10496191e-06  1.00819192e-06  7.10542736e-15  1.10467060e-06  6.96033805e-01  7.27560311e-01 
 1.05000000e-07  1.05000000e-07  1.10592773e-06  1.00819191e-06  7.10542736e-15  1.10563614e-06  6.96033806e-01  7.27560312e-01 
 1.06000000e-07  1.06000000e-07  1.10689349e-06  1.00819192e-06  7.10542736e-15  1.10660162e-06  6.96033805e-01  7.27560311e-01 
 1.07000000e-07  1.07000000e-07  1.10785913e-06  1.00819192e-06  0.00000000e+00  1.10756697e-06  6.96033805e-01  7.27560312e-01 
 1.08000000e-07  1.08000000e-07  1.10882467e-06  1.00819191e-06  7.10542736e-15  1.10853222e-06  6.96033805e-01  7.27560308e-01 
 1.09000000e-07  1.09000000e-07  1.10979012e-06  1.00819193e-06  3.55271368e-15  1.10949741e-06  6.96033804e-01  7.27560313e-01 
 1.10000000e-07  1.10000000e-07  1.11075543e-06  1.00819190e-06  3.55271368e-15  1.11046243e-06  6.96033806e-01  7.27560310e-01 
 1.11000000e-07  1.11000000e-07  1.11172071e-06  1.00819192e-06  3.55271368e-15  1.11142743e-06  6.96033804e-01  7.27560310e-01 
 1.12000000e-07  1.12000000e-07  1.11268585e-06  1.00819192e-06  3.55271368e-15  1.11239230e-06  6.96033804e-01  7.27560313e-01 
 1.13000000e-07  1.13000000e-07  1.11365090e-06  1.00819193e-06  3.55271368e-15  1.11335706e-06  6.96033804e-01  7.27560310e-01 
 1.14000000e-07  1.14000000e-07  1.11461583e-06  1.00819190e-06  0.00000000e+00  1.11432171e-06  6.96033806e-01  7.27560311e-01 
 1.15000000e-07  1.15000000e-07  1.11558070e-06  1.00819192e-06  7.10542736e-15  1.11528630e-06  6.96033804e-01  7.27560311e-01 
 1.16000000e-07  1.16000000e-07  1.11654543e-06  1.00819191e-06  3.55271368e-15  1.11625075e-06  6.96033806e-01  7.27560311e-01 
 1.17000000e-07  1.17000000e-07  1.11751010e-06  1.00819193e-06  3.55271368e-15  1.11721514e-06  6.96033804e-01  7.27560311e-01 
 1.18000000e-07  1.18000000e-07  1.11847463e-06  1.00819190e-06  7.10542736e-15  1.11817938e-06  6.96033806e-01  7.27560311e-01 
 1.19000000e-07  1.19000000e-07  1.11943909e-06  1.00819191e-06  0.00000000e+00  1.11914356e-06  6.96033806e-01  7.27560310e-01 
 1.20000000e-07  1.20000000e-07  1.12040345e-06  1.00819193e-06  3.55271368e-15  1.12010765e-06  6.96033804e-01  7.27560312e-01 
 1.21000000e-07  1.21000000e-07  1.12136769e-06  1.00819191e-06  3.55271368e-15  1.12107160e-06  6.96033805e-01  7.27560312e-01 
 1.22000000e-07  1.22000000e-07  1.12233185e-06  1.00819192e-06  3.55271368e-15  1.12203548e-06  6.96033804e-01  7.27560311e-01 
 1.23000000e-07  1.23000000e-07  1.12329588e-06  1.00819191e-06  3.55271368e-15  1.12299923e-06  6.96033806e-01  7.27560313e-01 
 1.24000000e-07  1.24000000e-07  1.12425985e-06  1.00819192e-06  7.10542736e-15  1.12396292e-06  6.96033804e-01  7.27560311e-01 
 1.25000000e-07  1.25000000e-07  1.12522368e-06  1.00819190e-06  3.55271368e-15  1.12492647e-06  6.96033806e-01  7.27560310e-01 
 1.26000000e-07  1.26000000e-07  1.12618743e-06  1.00819191e-06  3.55271368e-15  1.12588994e-06  6.96033806e-01  7.27560311e-01 
 1.27000000e-07  1.27000000e-07  1.12715109e-06  1.00819192e-06  0.00000000e+00  1.12685331e-06  6.96033805e-01  7.27560312e-01 
 1.28000000e-07  1.28000000e-07  1.12811463e-06  1.00819192e-06  3.55271368e-15  1.12781658e-06  6.96033805e-01  7.27560312e-01 
 1.29000000e-07  1.29000000e-07  1.12907809e-06  1.00819192e-06  0.00000000e+00  1.12877974e-06  6.96033805e-01  7.27560310e-01 
 1.30000000e-07  1.30000000e-07  1.13004141e-06  1.00819191e-06  0.00000000e+00  1.12974279e-06  6.96033805e-01  7.27560308e-01 
 1.31000000e-07  1.31000000e-07  1.13100467e-06  1.00819193e-06  0.00000000e+00  1.13070577e-06  6.96033804e-01  7.27560314e-01 
 1.32000000e-07  1.32000000e-07  1.13196779e-06  1.00819192e-06  3.55271368e-15  1.13166861e-06  6.96033805e-01  7.27560310e-01 
 1.33000000e-07  1.33000000e-07  1.13293083e-06  1.00819192e-06  3.55271368e-15  1.13263137e-06  6.96033805e-01  7.27560313e-01 
 1.34000000e-07  1.34000000e-07  1.13389377e-06  1.00819192e-06  3.55271368e-15  1.13359403e-06  6.96033805e-01  7.27560311e-01 
 1.35000000e-07  1.35000000e-07  1.13485659e-06  1.00819191e-06  7.10542736e-15  1.13455657e-06  6.96033805e-01  7.27560310e-01 
 1.36000000e-07  1.36000000e-07  1.13581932e-06  1.00819191e-06  7.10542736e-15  1.13551902e-06  6.96033805e-01  7.27560312e-01 
 1.37000000e-07  1.37000000e-07  1.13678195e-06  1.00819191e-06  3.55271368e-15  1.13648137e-06  6.96033805e-01  7.27560309e-01 
 1.38000000e-07  1.38000000e-07  1.13774447e-06  1.00819191e-06  3.55271368e-15  1.13744361e-06  6.96033805e-01  7.27560312e-01 
 1.39000000e-07  1.39000000e-07  1.13870690e-06  1.00819192e-06  7.10542736e-15  1.13840577e-06  6.96033804e-01  7.27560310e-01 
 1.40000000e-07  1.40000000e-07  1.13966921e-06  1.00819191e-06  3.55271368e-15  1.13936779e-06  6.96033805e-01  7.27560311e-01 
 1.41000000e-07  1.41000000e-07  1.14063144e-06  1.00819193e-06  7.10542736e-15  1.14032974e-06  6.96033804e-01  7.27560309e-01 
 1.42000000e-07  1.42000000e-07  1.14159354e-06  1.00819191e-06  7.10542736e-15  1.14129156e-06  6.96033805e-01  7.27560313e-01 
 1.43000000e-07  1.43000000e-07  1.14255554e-06  1.00819191e-06  7.10542736e-15  1.14225328e-06  6.96033806e-01  7.27560309e-01 
 1.44000000e-07  1.44000000e-07  1.14351747e-06  1.00819193e-06  3.55271368e-15  1.14321493e-06  6.96033804e-01  7.27560311e-01 
 1.45000000e-07  1.45000000e-07  1.14447926e-06  1.00819191e-06  3.55271368e-15  1.14417643e-06  6.96033806e-01  7.27560312e-01 
 1.46000000e-07  1.46000000e-07  1.14544097e-06  1.00819192e-06  3.55271368e-15  1.14513786e-06  6.96033805e-01  7.27560309e-01 
 1.47000000e-07  1.47000000e-07  1.14640256e-06  1.00819192e-06  7.10542736e-15  1.14609918e-06  6.96033805e-01  7.27560311e-01 
 1.48000000e-07  1.48000000e-07  1.14736403e-06  1.00819191e-06  7.10542736e-15  1.14706037e-06  6.96033805e-01  7.27560309e-01 
 1.49000000e-07  1.49000000e-07  1.14832543e-06  1.00819192e-06  7.10542736e-15  1.14802149e-06  6.96033805e-01  7.27560313e-01 
 1.50000000e-07  1.50000000e-07  1.14928671e-06  1.00819192e-06  7.10542736e-15  1.14898249e-06  6.96033805e-01  7.27560309e-01 
 1.51000000e-07  1.51000000e-07  1.15024790e-06  1.00819193e-06  7.10542736e-15  1.14994339e-06  6.96033804e-01  7.27560313e-01 
 1.52000000e-07  1.52000000e-07  1.15120895e-06  1.00819191e-06  3.55271368e-15  1.15090416e-06  6.96033806e-01  7.27560312e-01 
 1.53000000e-07  1.53000000e-07  1.15216992e-06  1.00819192e-06  3.55271368e-15  1.15186486e-06  6.96033805e-01  7.27560309e-01 
