 i-sweep         i(Vin)          i(Vout)         i(Vbias)        i(v1)           i(v2)           i(vout1)        v(vbp)          v(vcn)         
 0.00000000e+00  0.00000000e+00  8.84238105e-09  1.00819192e-06  9.92073389e-07  1.00091466e-06  9.06584653e-09  6.96033804e-01  7.27560311e-01 
 1.00000000e-09  1.00000000e-09  9.67934355e-09  1.00819192e-06  9.92185630e-07  1.00186386e-06  9.92200470e-09  6.96033805e-01  7.27560312e-01 
 2.00000000e-09  2.00000000e-09  1.05348619e-08  1.00819190e-06  9.92281535e-07  1.00281530e-06  1.07967376e-08  6.96033806e-01  7.27560309e-01 
 3.00000000e-09  3.00000000e-09  1.13934924e-08  1.00819192e-06  9.92374751e-07  1.00376715e-06  1.16745532e-08  6.96033805e-01  7.27560314e-01 
 4.00000000e-09  4.00000000e-09  1.22588730e-08  1.00819192e-06  9.92462002e-07  1.00471979e-06  1.25590838e-08  6.96033805e-01  7.27560309e-01 
 5.00000000e-09  5.00000000e-09  1.31303572e-08  1.00819191e-06  9.92543868e-07  1.00567314e-06  1.34496692e-08  6.96033805e-01  7.27560312e-01 
 6.00000000e-09  6.00000000e-09  1.40072522e-08  1.00819191e-06  9.92620961e-07  1.00662713e-06  1.43456223e-08  6.96033805e-01  7.27560309e-01 
 7.00000000e-09  7.00000000e-09  1.48890109e-08  1.00819193e-06  9.92693771e-07  1.00758171e-06  1.52463792e-08  6.96033804e-01  7.27560312e-01 
 8.00000000e-09  8.00000000e-09  1.57751394e-08  1.00819191e-06  9.92762679e-07  1.00853674e-06  1.61514350e-08  6.96033806e-01  7.27560309e-01 
 9.00000000e-09  9.00000000e-09  1.66652185e-08  1.00819191e-06  9.92828102e-07  1.00949225e-06  1.70603736e-08  6.96033805e-01  7.27560310e-01 
 1.00000000e-08  1.00000000e-08  1.75588823e-08  1.00819193e-06  9.92890335e-07  1.01044816e-06  1.79728246e-08  6.96033804e-01  7.27560313e-01 
 1.10000000e-08  1.10000000e-08  1.84558324e-08  1.00819193e-06  9.92949644e-07  1.01140441e-06  1.88884837e-08  6.96033804e-01  7.27560311e-01 
 1.20000000e-08  1.20000000e-08  1.93557455e-08  1.00819191e-06  9.93006267e-07  1.01236096e-06  1.98070366e-08  6.96033805e-01  7.27560310e-01 
 1.30000000e-08  1.30000000e-08  2.02584136e-08  1.00819192e-06  9.93060453e-07  1.01331781e-06  2.07282604e-08  6.96033805e-01  7.27560312e-01 
 1.40000000e-08  1.40000000e-08  2.11636095e-08  1.00819190e-06  9.93112346e-07  1.01427490e-06  2.16519353e-08  6.96033806e-01  7.27560309e-01 
 1.50000000e-08  1.50000000e-08  2.20711129e-08  1.00819193e-06  9.93162191e-07  1.01523225e-06  2.25778438e-08  6.96033804e-01  7.27560314e-01 
 1.60000000e-08  1.60000000e-08  2.29807711e-08  1.00819191e-06  9.93210046e-07  1.01618976e-06  2.35058196e-08  6.96033806e-01  7.27560309e-01 
 1.70000000e-08  1.70000000e-08  2.38924045e-08  1.00819192e-06  9.93256124e-07  1.01714749e-06  2.44356925e-08  6.96033805e-01  7.27560312e-01 
 1.80000000e-08  1.80000000e-08  2.48058925e-08  1.00819192e-06  9.93300514e-07  1.01810536e-06  2.53673433e-08  6.96033805e-01  7.27560312e-01 
 1.90000000e-08  1.90000000e-08  2.57210999e-08  1.00819192e-06  9.93343329e-07  1.01906339e-06  2.63006306e-08  6.96033805e-01  7.27560312e-01 
 2.00000000e-08  2.00000000e-08  2.66379097e-08  1.00819191e-06  9.93384667e-07  1.02002154e-06  2.72354428e-08  6.96033805e-01  7.27560309e-01 
 2.10000000e-08  2.10000000e-08  2.75562133e-08  1.00819191e-06  9.93424626e-07  1.02097980e-06  2.81716699e-08  6.96033806e-01  7.27560312e-01 
 2.20000000e-08  2.20000000e-08  2.84759061e-08  1.00819193e-06  9.93463315e-07  1.02193819e-06  2.91092125e-08  6.96033804e-01  7.27560312e-01 
 2.30000000e-08  2.30000000e-08  2.93969222e-08  1.00819193e-06  9.93500766e-07  1.02289665e-06  3.00479954e-08  6.96033804e-01  7.27560312e-01 
 2.40000000e-08  2.40000000e-08  3.03191499e-08  1.00819192e-06  9.93537061e-07  1.02385518e-06  3.09879138e-08  6.96033805e-01  7.27560309e-01 
 2.50000000e-08  2.50000000e-08  3.12425357e-08  1.00819191e-06  9.93572268e-07  1.02481377e-06  3.19289184e-08  6.96033806e-01  7.27560311e-01 
 2.60000000e-08  2.60000000e-08  3.21669980e-08  1.00819193e-06  9.93606490e-07  1.02577246e-06  3.28709235e-08  6.96033804e-01  7.27560311e-01 
 2.70000000e-08  2.70000000e-08  3.30924852e-08  1.00819191e-06  9.93639699e-07  1.02673116e-06  3.38138795e-08  6.96033805e-01  7.27560311e-01 
 2.80000000e-08  2.80000000e-08  3.40189317e-08  1.00819191e-06  9.93672005e-07  1.02768991e-06  3.47577177e-08  6.96033805e-01  7.27560309e-01 
 2.90000000e-08  2.90000000e-08  3.49463001e-08  1.00819193e-06  9.93703456e-07  1.02864872e-06  3.57024052e-08  6.96033804e-01  7.27560312e-01 
 3.00000000e-08  3.00000000e-08  3.58744927e-08  1.00819191e-06  9.93734050e-07  1.02960752e-06  3.66478480e-08  6.96033805e-01  7.27560311e-01 
 3.10000000e-08  3.10000000e-08  3.68035185e-08  1.00819192e-06  9.93763873e-07  1.03056637e-06  3.75940517e-08  6.96033805e-01  7.27560311e-01 
 3.20000000e-08  3.20000000e-08  3.77333045e-08  1.00819193e-06  9.93792947e-07  1.03152523e-06  3.85409477e-08  6.96033804e-01  7.27560314e-01 
 3.30000000e-08  3.30000000e-08  3.86638117e-08  1.00819191e-06  9.93821285e-07  1.03248408e-06  3.94884943e-08  6.96033805e-01  7.27560310e-01 
 3.40000000e-08  3.40000000e-08  3.95950170e-08  1.00819191e-06  9.93848944e-07  1.03344295e-06  4.04366711e-08  6.96033805e-01  7.27560313e-01 
 3.50000000e-08  3.50000000e-08  4.05268636e-08  1.00819193e-06  9.93875974e-07  1.03440182e-06  4.13854207e-08  6.96033804e-01  7.27560310e-01 
 3.60000000e-08  3.60000000e-08  4.14593373e-08  1.00819192e-06  9.93902352e-07  1.03536068e-06  4.23347366e-08  6.96033805e-01  7.27560312e-01 
 3.70000000e-08  3.70000000e-08  4.23923883e-08  1.00819193e-06  9.93928163e-07  1.03631954e-06  4.32845612e-08  6.96033804e-01  7.27560312e-01 
 3.80000000e-08  3.80000000e-08  4.33260041e-08  1.00819192e-06  9.93953368e-07  1.03727836e-06  4.42348808e-08  6.96033805e-01  7.27560313e-01 
 3.90000000e-08  3.90000000e-08  4.42601351e-08  1.00819193e-06  9.93978055e-07  1.03823718e-06  4.51856587e-08  6.96033804e-01  7.27560312e-01 
 4.00000000e-08  4.00000000e-08  4.51947795e-08  1.00819190e-06  9.94002178e-07  1.03919595e-06  4.61368830e-08  6.96033806e-01  7.27560311e-01 
 4.10000000e-08  4.10000000e-08  4.61299052e-08  1.00819191e-06  9.94025825e-07  1.04015472e-06  4.70885264e-08  6.96033806e-01  7.27560310e-01 
 4.20000000e-08  4.20000000e-08  4.70654875e-08  1.00819191e-06  9.94048982e-07  1.04111346e-06  4.80405645e-08  6.96033805e-01  7.27560312e-01 
 4.30000000e-08  4.30000000e-08  4.80015014e-08  1.00819191e-06  9.94071673e-07  1.04207217e-06  4.89929728e-08  6.96033805e-01  7.27560309e-01 
 4.40000000e-08  4.40000000e-08  4.89379328e-08  1.00819191e-06  9.94093915e-07  1.04303084e-06  4.99457425e-08  6.96033805e-01  7.27560313e-01 
 4.50000000e-08  4.50000000e-08  4.98747497e-08  1.00819192e-06  9.94115721e-07  1.04398947e-06  5.08988343e-08  6.96033805e-01  7.27560309e-01 
 4.60000000e-08  4.60000000e-08  5.08119573e-08  1.00819193e-06  9.94137121e-07  1.04494808e-06  5.18522530e-08  6.96033804e-01  7.27560313e-01 
 4.70000000e-08  4.70000000e-08  5.17495167e-08  1.00819192e-06  9.94158107e-07  1.04590662e-06  5.28059768e-08  6.96033804e-01  7.27560311e-01 
 4.80000000e-08  4.80000000e-08  5.26874118e-08  1.00819192e-06  9.94178698e-07  1.04686511e-06  5.37599761e-08  6.96033805e-01  7.27560309e-01 
 4.90000000e-08  4.90000000e-08  5.36256390e-08  1.00819192e-06  9.94198931e-07  1.04782357e-06  5.47142493e-08  6.96033805e-01  7.27560312e-01 
 5.00000000e-08  5.00000000e-08  5.45641683e-08  1.00819193e-06  9.94218803e-07  1.04878198e-06  5.56687695e-08  6.96033804e-01  7.27560313e-01 
 5.10000000e-08  5.10000000e-08  5.55030013e-08  1.00819191e-06  9.94238308e-07  1.04974032e-06  5.66235353e-08  6.96033805e-01  7.27560310e-01 
 5.20000000e-08  5.20000000e-08  5.64421221e-08  1.00819191e-06  9.94257483e-07  1.05069861e-06  5.75785413e-08  6.96033805e-01  7.27560311e-01 
 5.30000000e-08  5.30000000e-08  5.73815040e-08  1.00819193e-06  9.94276354e-07  1.05165686e-06  5.85337506e-08  6.96033804e-01  7.27560309e-01 
 5.40000000e-08  5.40000000e-08  5.83211470e-08  1.00819192e-06  9.94294888e-07  1.05261504e-06  5.94891676e-08  6.96033804e-01  7.27560311e-01 
 5.50000000e-08  5.50000000e-08  5.92610334e-08  1.00819191e-06  9.94313103e-07  1.05357315e-06  6.04447808e-08  6.96033806e-01  7.27560311e-01 
 5.60000000e-08  5.60000000e-08  6.02011596e-08  1.00819192e-06  9.94331049e-07  1.05453122e-06  6.14005776e-08  6.96033804e-01  7.27560311e-01 
 5.70000000e-08  5.70000000e-08  6.11415096e-08  1.00819192e-06  9.94348694e-07  1.05548921e-06  6.23565477e-08  6.96033805e-01  7.27560313e-01 
 5.80000000e-08  5.80000000e-08  6.20820693e-08  1.00819193e-06  9.94366072e-07  1.05644715e-06  6.33126764e-08  6.96033804e-01  7.27560314e-01 
 5.90000000e-08  5.90000000e-08  6.30228296e-08  1.00819191e-06  9.94383155e-07  1.05740500e-06  6.42689567e-08  6.96033805e-01  7.27560310e-01 
 6.00000000e-08  6.00000000e-08  6.39637925e-08  1.00819191e-06  9.94399988e-07  1.05836279e-06  6.52253903e-08  6.96033805e-01  7.27560313e-01 
 6.10000000e-08  6.10000000e-08  6.49049348e-08  1.00819192e-06  9.94416583e-07  1.05932053e-06  6.61819517e-08  6.96033805e-01  7.27560309e-01 
 6.20000000e-08  6.20000000e-08  6.58462547e-08  1.00819191e-06  9.94432909e-07  1.06027817e-06  6.71386475e-08  6.96033805e-01  7.27560312e-01 
 6.30000000e-08  6.30000000e-08  6.67877416e-08  1.00819191e-06  9.94448996e-07  1.06123575e-06  6.80954626e-08  6.96033806e-01  7.27560310e-01 
 6.40000000e-08  6.40000000e-08  6.77293883e-08  1.00819192e-06  9.94464870e-07  1.06219327e-06  6.90523902e-08  6.96033805e-01  7.27560313e-01 
 6.50000000e-08  6.50000000e-08  6.86711861e-08  1.00819191e-06  9.94480493e-07  1.06315070e-06  7.00094225e-08  6.96033805e-01  7.27560309e-01 
 6.60000000e-08  6.60000000e-08  6.96131401e-08  1.00819193e-06  9.94495924e-07  1.06410808e-06  7.09665639e-08  6.96033804e-01  7.27560313e-01 
 6.70000000e-08  6.70000000e-08  7.05552115e-08  1.00819192e-06  9.94511119e-07  1.06506535e-06  7.19237784e-08  6.96033804e-01  7.27560313e-01 
 6.80000000e-08  6.80000000e-08  7.14974266e-08  1.00819193e-06  9.94526117e-07  1.06602257e-06  7.28810862e-08  6.96033804e-01  7.27560311e-01 
 6.90000000e-08  6.90000000e-08  7.24397662e-08  1.00819191e-06  9.94540883e-07  1.06697967e-06  7.38384815e-08  6.96033805e-01  7.27560313e-01 
 7.00000000e-08  7.00000000e-08  7.33822301e-08  1.00819192e-06  9.94555474e-07  1.06793673e-06  7.47959514e-08  6.96033805e-01  7.27560310e-01 
 7.10000000e-08  7.10000000e-08  7.43247988e-08  1.00819192e-06  9.94569870e-07  1.06889369e-06  7.57534914e-08  6.96033805e-01  7.27560311e-01 
 7.20000000e-08  7.20000000e-08  7.52674776e-08  1.00819191e-06  9.94584068e-07  1.06985057e-06  7.67110940e-08  6.96033805e-01  7.27560310e-01 
 7.30000000e-08  7.30000000e-08  7.62102541e-08  1.00819193e-06  9.94598112e-07  1.07080739e-06  7.76687479e-08  6.96033804e-01  7.27560313e-01 
 7.40000000e-08  7.40000000e-08  7.71531141e-08  1.00819190e-06  9.94611931e-07  1.07176408e-06  7.86264474e-08  6.96033806e-01  7.27560311e-01 
 7.50000000e-08  7.50000000e-08  7.80960843e-08  1.00819191e-06  9.94625609e-07  1.07272072e-06  7.95842123e-08  6.96033805e-01  7.27560309e-01 
 7.60000000e-08  7.60000000e-08  7.90391415e-08  1.00819193e-06  9.94639116e-07  1.07367728e-06  8.05420258e-08  6.96033804e-01  7.27560313e-01 
 7.70000000e-08  7.70000000e-08  7.99822644e-08  1.00819192e-06  9.94652448e-07  1.07463374e-06  8.14998643e-08  6.96033804e-01  7.27560312e-01 
 7.80000000e-08  7.80000000e-08  8.09254725e-08  1.00819191e-06  9.94665605e-07  1.07559010e-06  8.24577491e-08  6.96033805e-01  7.27560309e-01 
 7.90000000e-08  7.90000000e-08  8.18687482e-08  1.00819191e-06  9.94678610e-07  1.07654638e-06  8.34156541e-08  6.96033806e-01  7.27560311e-01 
 8.00000000e-08  8.00000000e-08  8.28120736e-08  1.00819192e-06  9.94691479e-07  1.07750259e-06  8.43735773e-08  6.96033805e-01  7.27560310e-01 
 8.10000000e-08  8.10000000e-08  8.37554825e-08  1.00819190e-06  9.94704170e-07  1.07845868e-06  8.53315416e-08  6.96033806e-01  7.27560311e-01 
 8.20000000e-08  8.20000000e-08  8.46989430e-08  1.00819191e-06  9.94716730e-07  1.07941470e-06  8.62895236e-08  6.96033806e-01  7.27560310e-01 
 8.30000000e-08  8.30000000e-08  8.56424567e-08  1.00819193e-06  9.94729161e-07  1.08037065e-06  8.72475174e-08  6.96033804e-01  7.27560313e-01 
 8.40000000e-08  8.40000000e-08  8.65860095e-08  1.00819191e-06  9.94741413e-07  1.08132646e-06  8.82055132e-08  6.96033806e-01  7.27560310e-01 
 8.50000000e-08  8.50000000e-08  8.75296191e-08  1.00819192e-06  9.94753556e-07  1.08228221e-06  8.91635250e-08  6.96033805e-01  7.27560312e-01 
 8.60000000e-08  8.60000000e-08  8.84732749e-08  1.00819190e-06  9.94765541e-07  1.08323785e-06  9.01215442e-08  6.96033806e-01  7.27560309e-01 
 8.70000000e-08  8.70000000e-08  8.94169663e-08  1.00819192e-06  9.94777428e-07  1.08419343e-06  9.10795703e-08  6.96033804e-01  7.27560312e-01 
 8.80000000e-08  8.80000000e-08  9.03606932e-08  1.00819191e-06  9.94789151e-07  1.08514888e-06  9.20375947e-08  6.96033805e-01  7.27560312e-01 
 8.90000000e-08  8.90000000e-08  9.13044520e-08  1.00819192e-06  9.94800772e-07  1.08610426e-06  9.29956050e-08  6.96033805e-01  7.27560310e-01 
 9.00000000e-08  9.00000000e-08  9.22482357e-08  1.00819192e-06  9.94812259e-07  1.08705953e-06  9.39536111e-08  6.96033804e-01  7.27560311e-01 
 9.10000000e-08  9.10000000e-08  9.31920479e-08  1.00819192e-06  9.94823626e-07  1.08801471e-06  9.49116096e-08  6.96033804e-01  7.27560310e-01 
 9.20000000e-08  9.20000000e-08  9.41358884e-08  1.00819191e-06  9.94834851e-07  1.08896977e-06  9.58696068e-08  6.96033806e-01  7.27560312e-01 
 9.30000000e-08  9.30000000e-08  9.50797521e-08  1.00819191e-06  9.94845983e-07  1.08992477e-06  9.68275898e-08  6.96033805e-01  7.27560310e-01 
 9.40000000e-08  9.40000000e-08  9.60236175e-08  1.00819192e-06  9.94857002e-07  1.09087966e-06  9.77855410e-08  6.96033805e-01  7.27560311e-01 
 9.50000000e-08  9.50000000e-08  9.69675007e-08  1.00819192e-06  9.94867905e-07  1.09183445e-06  9.87434729e-08  6.96033805e-01  7.27560313e-01 
 9.60000000e-08  9.60000000e-08  9.79114034e-08  1.00819192e-06  9.94878699e-07  1.09278914e-06  9.97013883e-08  6.96033805e-01  7.27560311e-01 
 9.70000000e-08  9.70000000e-08  9.88553044e-08  1.00819191e-06  9.94889374e-07  1.09374372e-06  1.00659271e-07  6.96033805e-01  7.27560312e-01 
 9.80000000e-08  9.80000000e-08  9.97992107e-08  1.00819191e-06  9.94899960e-07  1.09469821e-06  1.01617129e-07  6.96033805e-01  7.27560310e-01 
 9.90000000e-08  9.90000000e-08  1.00743131e-07  1.00819192e-06  9.94910442e-07  1.09565261e-06  1.02574962e-07  6.96033805e-01  7.27560312e-01 
 1.00000000e-07  1.00000000e-07  1.01687052e-07  1.00819192e-06  9.94920811e-07  1.09660690e-06  1.03532769e-07  6.96033805e-01  7.27560314e-01 
 1.01000000e-07  1.01000000e-07  1.02630951e-07  1.00819190e-06  9.94931074e-07  1.09756107e-06  1.04490517e-07  6.96033806e-01  7.27560309e-01 
 1.02000000e-07  1.02000000e-07  1.03574870e-07  1.00819193e-06  9.94941271e-07  1.09851519e-06  1.05448257e-07  6.96033804e-01  7.27560311e-01 
 1.03000000e-07  1.03000000e-07  1.04518774e-07  1.00819191e-06  9.94951341e-07  1.09946916e-06  1.06405954e-07  6.96033805e-01  7.27560313e-01 
 1.04000000e-07  1.04000000e-07  1.05462655e-07  1.00819192e-06  9.94961336e-07  1.10042305e-06  1.07363591e-07  6.96033805e-01  7.27560311e-01 
 1.05000000e-07  1.05000000e-07  1.06406555e-07  1.00819190e-06  9.94971213e-07  1.10137681e-06  1.08321213e-07  6.96033806e-01  7.27560311e-01 
 1.06000000e-07  1.06000000e-07  1.07350424e-07  1.00819192e-06  9.94981036e-07  1.10233051e-06  1.09278777e-07  6.96033805e-01  7.27560313e-01 
 1.07000000e-07  1.07000000e-07  1.08294287e-07  1.00819191e-06  9.94990746e-07  1.10328408e-06  1.10236306e-07  6.96033805e-01  7.27560310e-01 
 1.08000000e-07  1.08000000e-07  1.09238124e-07  1.00819192e-06  9.95000377e-07  1.10423755e-06  1.11193775e-07  6.96033805e-01  7.27560311e-01 
 1.09000000e-07  1.09000000e-07  1.10181954e-07  1.00819192e-06  9.95009922e-07  1.10519092e-06  1.12151212e-07  6.96033805e-01  7.27560312e-01 
 1.10000000e-07  1.10000000e-07  1.11125749e-07  1.00819192e-06  9.95019382e-07  1.10614418e-06  1.13108583e-07  6.96033804e-01  7.27560312e-01 
 1.11000000e-07  1.11000000e-07  1.12069525e-07  1.00819193e-06  9.95028760e-07  1.10709734e-06  1.14065901e-07  6.96033804e-01  7.27560311e-01 
 1.12000000e-07  1.12000000e-07  1.13013293e-07  1.00819190e-06  9.95038022e-07  1.10805036e-06  1.15023188e-07  6.96033806e-01  7.27560313e-01 
 1.13000000e-07  1.13000000e-07  1.13957016e-07  1.00819193e-06  9.95047266e-07  1.10900333e-06  1.15980397e-07  6.96033804e-01  7.27560311e-01 
 1.14000000e-07  1.14000000e-07  1.14900731e-07  1.00819192e-06  9.95056388e-07  1.10995616e-06  1.16937568e-07  6.96033805e-01  7.27560311e-01 
 1.15000000e-07  1.15000000e-07  1.15844399e-07  1.00819192e-06  9.95065442e-07  1.11090889e-06  1.17894668e-07  6.96033805e-01  7.27560310e-01 
 1.16000000e-07  1.16000000e-07  1.16788039e-07  1.00819190e-06  9.95074412e-07  1.11186150e-06  1.18851712e-07  6.96033806e-01  7.27560309e-01 
 1.17000000e-07  1.17000000e-07  1.17731650e-07  1.00819193e-06  9.95083340e-07  1.11281404e-06  1.19808693e-07  6.96033804e-01  7.27560312e-01 
 1.18000000e-07  1.18000000e-07  1.18675224e-07  1.00819192e-06  9.95092162e-07  1.11376643e-06  1.20765615e-07  6.96033805e-01  7.27560308e-01 
 1.19000000e-07  1.19000000e-07  1.19618768e-07  1.00819192e-06  9.95100919e-07  1.11471873e-06  1.21722475e-07  6.96033805e-01  7.27560311e-01 
 1.20000000e-07  1.20000000e-07  1.20562268e-07  1.00819190e-06  9.95109593e-07  1.11567091e-06  1.22679265e-07  6.96033806e-01  7.27560309e-01 
 1.21000000e-07  1.21000000e-07  1.21505733e-07  1.00819191e-06  9.95118214e-07  1.11662300e-06  1.23635996e-07  6.96033805e-01  7.27560309e-01 
 1.22000000e-07  1.22000000e-07  1.22449155e-07  1.00819191e-06  9.95126770e-07  1.11757497e-06  1.24592651e-07  6.96033805e-01  7.27560312e-01 
 1.23000000e-07  1.23000000e-07  1.23392535e-07  1.00819191e-06  9.95135252e-07  1.11852684e-06  1.25549245e-07  6.96033805e-01  7.27560311e-01 
 1.24000000e-07  1.24000000e-07  1.24335868e-07  1.00819190e-06  9.95143656e-07  1.11947858e-06  1.26505755e-07  6.96033806e-01  7.27560311e-01 
 1.25000000e-07  1.25000000e-07  1.25279158e-07  1.00819191e-06  9.95152018e-07  1.12043023e-06  1.27462208e-07  6.96033805e-01  7.27560310e-01 
 1.26000000e-07  1.26000000e-07  1.26222414e-07  1.00819191e-06  9.95160297e-07  1.12138176e-06  1.28418591e-07  6.96033805e-01  7.27560309e-01 
 1.27000000e-07  1.27000000e-07  1.27165606e-07  1.00819192e-06  9.95168524e-07  1.12233319e-06  1.29374891e-07  6.96033805e-01  7.27560311e-01 
 1.28000000e-07  1.28000000e-07  1.28108757e-07  1.00819192e-06  9.95176681e-07  1.12328450e-06  1.30331122e-07  6.96033805e-01  7.27560312e-01 
 1.29000000e-07  1.29000000e-07  1.29051868e-07  1.00819193e-06  9.95184781e-07  1.12423570e-06  1.31287280e-07  6.96033804e-01  7.27560311e-01 
 1.30000000e-07  1.30000000e-07  1.29994916e-07  1.00819191e-06  9.95192801e-07  1.12518678e-06  1.32243362e-07  6.96033805e-01  7.27560313e-01 
 1.31000000e-07  1.31000000e-07  1.30937915e-07  1.00819192e-06  9.95200784e-07  1.12613776e-06  1.33199364e-07  6.96033805e-01  7.27560311e-01 
 1.32000000e-07  1.32000000e-07  1.31880860e-07  1.00819192e-06  9.95208696e-07  1.12708861e-06  1.34155287e-07  6.96033805e-01  7.27560312e-01 
 1.33000000e-07  1.33000000e-07  1.32823752e-07  1.00819191e-06  9.95216537e-07  1.12803935e-06  1.35111131e-07  6.96033806e-01  7.27560310e-01 
 1.34000000e-07  1.34000000e-07  1.33766585e-07  1.00819193e-06  9.95224358e-07  1.12899000e-06  1.36066894e-07  6.96033804e-01  7.27560313e-01 
 1.35000000e-07  1.35000000e-07  1.34709358e-07  1.00819190e-06  9.95232075e-07  1.12994050e-06  1.37022574e-07  6.96033806e-01  7.27560310e-01 
