 v-sweep         i(VloutI)       i(VldumpI)      v(Vin)          v(Vgate)        v(d0)           i(vini)         i(vgatei)       v(vloutv)       v(vldumpv)      i(vout)         i(vdump)       
 5.00000000e-01  9.06193436e-13  8.96378539e-13  1.98736710e-02  3.94927767e-01  3.53245423e-10  3.08242321e-12  8.52054538e-13  1.98268991e-02  1.97713170e-02  2.54729571e-11  2.54321009e-11 
 5.01000000e-01  9.41182960e-13  9.32212990e-13  2.02006039e-02  3.97419193e-01  3.54029052e-10  3.17357252e-12  9.11106260e-13  2.01548471e-02  2.01002456e-02  2.54942734e-11  2.54960497e-11 
 5.02000000e-01  9.80478249e-13  9.67923660e-13  2.05259131e-02  4.00034277e-01  3.54813680e-10  3.27271543e-12  9.67099664e-13  2.04812274e-02  2.04277295e-02  2.55440114e-11  2.55049315e-11 
 5.03000000e-01  1.01960555e-12  1.01040978e-12  2.08948901e-02  4.02891543e-01  3.55598438e-10  3.37385675e-12  1.02259173e-12  2.08514597e-02  2.07992371e-02  2.55528931e-11  2.55759858e-11 
 5.04000000e-01  1.06372991e-12  1.04879961e-12  2.12581145e-02  4.05619738e-01  3.56383724e-10  3.47943896e-12  1.08704365e-12  2.12157562e-02  2.11647501e-02  2.56186183e-11  2.56346055e-11 
 5.05000000e-01  1.10082274e-12  1.09442246e-12  2.16317999e-02  4.08394481e-01  3.57169484e-10  3.58824082e-12  1.14376043e-12  2.15905168e-02  2.15404630e-02  2.56843435e-11  2.56559218e-11 
 5.06000000e-01  1.14730371e-12  1.13342176e-12  2.19978177e-02  4.11341431e-01  3.57955687e-10  3.69915210e-12  1.19927158e-12  2.19577673e-02  2.19091920e-02  2.57021071e-11  2.57216470e-11 
 5.07000000e-01  1.19114718e-12  1.18728976e-12  2.24056958e-02  4.14129626e-01  3.58742428e-10  3.81594756e-12  1.25746809e-12  2.23666069e-02  2.23188269e-02  2.57429633e-11  2.57234234e-11 
 5.08000000e-01  1.24077467e-12  1.23171003e-12  2.28165225e-02  4.17304959e-01  3.59529545e-10  3.93907129e-12  1.32413525e-12  2.27787059e-02  2.27324463e-02  2.57784905e-11  2.57838195e-11 
 5.09000000e-01  1.28940005e-12  1.28075791e-12  2.32146953e-02  4.20480230e-01  3.60317220e-10  4.06419343e-12  1.38586885e-12  2.31781298e-02  2.31332308e-02  2.58175703e-11  2.58157939e-11 
 5.10000000e-01  1.34167508e-12  1.33250314e-12  2.36360944e-02  4.23168369e-01  3.61105324e-10  4.19286827e-12  1.44969974e-12  2.36002930e-02  2.35562294e-02  2.58211230e-11  2.58157939e-11 
 5.11000000e-01  1.39638723e-12  1.38685894e-12  2.40694988e-02  4.26204088e-01  3.61893919e-10  4.32709424e-12  1.50624305e-12  2.40346996e-02  2.39917012e-02  2.58921773e-11  2.58921773e-11 
 5.12000000e-01  1.45366329e-12  1.44152441e-12  2.44995699e-02  4.29362224e-01  3.62683090e-10  4.46642723e-12  1.57481320e-12  2.44658430e-02  2.44240988e-02  2.59401389e-11  2.59543498e-11 
 5.13000000e-01  1.50991557e-12  1.50039681e-12  2.49435669e-02  4.32190137e-01  3.63472602e-10  4.61186644e-12  1.64407897e-12  2.49105878e-02  2.48695846e-02  2.59525734e-11  2.59134936e-11 
 5.14000000e-01  1.56996897e-12  1.56280970e-12  2.53989382e-02  4.34964930e-01  3.64262634e-10  4.75719464e-12  1.71479324e-12  2.53666573e-02  2.53263628e-02  2.59667843e-11  2.59667843e-11 
 5.15000000e-01  1.63253097e-12  1.62393375e-12  2.58786914e-02  4.37911514e-01  3.65053161e-10  4.91329200e-12  1.78355074e-12  2.58471663e-02  2.58077377e-02  2.60200750e-11  2.60129696e-11 
 5.16000000e-01  1.69663528e-12  1.68669965e-12  2.63601728e-02  4.40890250e-01  3.65844192e-10  5.07138775e-12  1.84067171e-12  2.63294185e-02  2.62908597e-02  2.60129696e-11  2.59898769e-11 
 5.17000000e-01  1.76095371e-12  1.75412675e-12  2.68430005e-02  4.43895568e-01  3.66635701e-10  5.23625587e-12  1.90924013e-12  2.68130007e-02  2.67752654e-02  2.60484967e-11  2.60556021e-11 
 5.18000000e-01  1.82575142e-12  1.82787064e-12  2.73990140e-02  4.46564149e-01  3.67427695e-10  5.40323342e-12  1.97456287e-12  2.73694624e-02  2.73320835e-02  2.60662603e-11  2.60591548e-11 
 5.19000000e-01  1.90406117e-12  1.89234217e-12  2.78980375e-02  4.49387490e-01  3.68220163e-10  5.57909274e-12  2.03652546e-12  2.78690568e-02  2.78324293e-02  2.61053401e-11  2.61017874e-11 
 5.20000000e-01  1.97759631e-12  1.96514323e-12  2.84044428e-02  4.52720650e-01  3.69013087e-10  5.75794967e-12  2.08183124e-12  2.83763745e-02  2.83408245e-02  2.61035638e-11  2.61266564e-11 
 5.21000000e-01  2.04877548e-12  2.04876469e-12  2.89541099e-02  4.55350311e-01  3.69806550e-10  5.94291283e-12  2.14698398e-12  2.89264246e-02  2.88911629e-02  2.60858002e-11  2.60733657e-11 
 5.22000000e-01  2.12940865e-12  2.12338290e-12  2.94795254e-02  4.57976793e-01  3.70600478e-10  6.13464834e-12  2.20222798e-12  2.94522176e-02  2.94173851e-02  2.61195510e-11  2.61159983e-11 
 5.23000000e-01  2.21493582e-12  2.20182544e-12  3.00568538e-02  4.60612864e-01  3.71394902e-10  6.33137986e-12  2.26433802e-12  3.00298936e-02  2.99954911e-02  2.61177746e-11  2.61195510e-11 
 5.24000000e-01  2.29556508e-12  2.28856998e-12  3.06198184e-02  4.63261071e-01  3.72189843e-10  6.53721521e-12  2.32263514e-12  3.05932040e-02  3.05591444e-02  2.61870525e-11  2.61586308e-11 
 5.25000000e-01  2.38603820e-12  2.37325048e-12  3.12123615e-02  4.65653952e-01  3.72985212e-10  6.74571510e-12  2.37090209e-12  3.11859194e-02  3.11520118e-02  2.61550781e-11  2.61675126e-11 
 5.26000000e-01  2.47496735e-12  2.46760290e-12  3.18070826e-02  4.68457351e-01  3.73781176e-10  6.96420699e-12  2.41978139e-12  3.17810480e-02  3.17475583e-02  2.61781707e-11  2.61781707e-11 
 5.27000000e-01  2.56610363e-12  2.55889538e-12  3.24088177e-02  4.70797480e-01  3.74577507e-10  7.18691773e-12  2.46019871e-12  3.23829069e-02  3.23495010e-02  2.62065925e-11  2.61977107e-11 
 5.28000000e-01  2.66356381e-12  2.65503824e-12  3.30397363e-02  4.73112037e-01  3.75374435e-10  7.41562367e-12  2.51957309e-12  3.30139081e-02  3.29805327e-02  2.62083688e-11  2.62048161e-11 
 5.29000000e-01  2.76197209e-12  2.75275570e-12  3.36636821e-02  4.75503207e-01  3.76171776e-10  7.65143504e-12  2.55693904e-12  3.36379914e-02  3.36047278e-02  2.62083688e-11  2.62083688e-11 
 5.30000000e-01  2.86202170e-12  2.85484210e-12  3.42982729e-02  4.77774757e-01  3.76969722e-10  7.89568411e-12  2.60014926e-12  3.42726346e-02  3.42393597e-02  2.62296851e-11  2.62154742e-11 
 5.31000000e-01  2.96808892e-12  2.95908759e-12  3.49671447e-02  4.79997907e-01  3.77768084e-10  8.14481815e-12  2.63444301e-12  3.49415068e-02  3.49081792e-02  2.62172506e-11  2.62048161e-11 
 5.32000000e-01  3.07885030e-12  3.06966302e-12  3.56461441e-02  4.82139418e-01  3.78566949e-10  8.40483239e-12  2.68698605e-12  3.56204442e-02  3.55869672e-02  2.62687649e-11  2.62492250e-11 
 5.33000000e-01  3.18880189e-12  3.18224574e-12  3.63246974e-02  4.84088912e-01  3.79366341e-10  8.66928751e-12  2.72877207e-12  3.62988336e-02  3.62650818e-02  2.62687649e-11  2.62545541e-11 
 5.34000000e-01  3.30291059e-12  3.29623919e-12  3.70290894e-02  4.86313641e-01  3.80166226e-10  8.94528895e-12  2.74826863e-12  3.70031948e-02  3.69693407e-02  2.62723177e-11  2.62776467e-11 
 5.35000000e-01  3.42629407e-12  3.41959296e-12  3.77757233e-02  4.88206641e-01  3.80966601e-10  9.22861787e-12  2.80621013e-12  3.77495686e-02  3.77152952e-02  2.63078448e-11  2.63096211e-11 
 5.36000000e-01  3.54961238e-12  3.53806717e-12  3.84792868e-02  4.90128630e-01  3.81767465e-10  9.51971835e-12  2.84341647e-12  3.84529233e-02  3.84183363e-02  2.63185029e-11  2.62936339e-11 
 5.37000000e-01  3.67718468e-12  3.66598300e-12  3.92189451e-02  4.92169200e-01  3.82568807e-10  9.81947856e-12  2.85418390e-12  3.91924151e-02  3.91575464e-02  2.63433719e-11  2.63149502e-11 
 5.38000000e-01  3.80874274e-12  3.79582596e-12  3.99765021e-02  4.93887826e-01  3.83370704e-10  1.01256781e-11  2.89957294e-12  3.99496035e-02  3.99142000e-02  2.63771227e-11  2.63717936e-11 
 5.39000000e-01  3.93985549e-12  3.93356589e-12  4.07308564e-02  4.95801117e-01  3.84173094e-10  1.04429798e-11  2.92693647e-12  4.07037003e-02  4.06678546e-02  2.63948863e-11  2.63931099e-11 
 5.40000000e-01  4.08152166e-12  4.07350560e-12  4.14729975e-02  4.97584856e-01  3.84975977e-10  1.07704956e-11  2.95474409e-12  4.14455099e-02  4.14091582e-02  2.63966626e-11  2.64357425e-11 
 5.41000000e-01  4.22269642e-12  4.21710205e-12  4.22581021e-02  4.99349612e-01  3.85779399e-10  1.11060050e-11  2.97971890e-12  4.22302393e-02  4.21933500e-02  2.64055444e-11  2.64250843e-11 
 5.42000000e-01  4.37996305e-12  4.36638656e-12  4.30810559e-02  5.01063752e-01  3.86583323e-10  1.14528387e-11  3.01239589e-12  4.30527432e-02  4.30152223e-02  2.65067968e-11  2.64606115e-11 
 5.43000000e-01  4.53097154e-12  4.52324544e-12  4.38674802e-02  5.02693755e-01  3.87387730e-10  1.18109966e-11  3.05040368e-12  4.38386878e-02  4.38004242e-02  2.65067968e-11  2.64961386e-11 
 5.44000000e-01  4.68874882e-12  4.68059764e-12  4.46815035e-02  5.04303970e-01  3.88192654e-10  1.21789245e-11  3.07918968e-12  4.46521894e-02  4.46131759e-02  2.65458766e-11  2.65547584e-11 
 5.45000000e-01  4.85701282e-12  4.84866593e-12  4.55504192e-02  5.06004508e-01  3.88998113e-10  1.25564004e-11  3.08555438e-12  4.55205911e-02  4.54808249e-02  2.66187072e-11  2.65512057e-11 
 5.46000000e-01  5.02042360e-12  5.01471122e-12  4.63656774e-02  5.07534149e-01  3.89804021e-10  1.29427580e-11  3.12235827e-12  4.63352661e-02  4.62946452e-02  2.66364708e-11  2.66169309e-11 
 5.47000000e-01  5.19590643e-12  5.18913791e-12  4.72277651e-02  5.09138701e-01  3.90610531e-10  1.33444367e-11  3.14724288e-12  4.71967612e-02  4.71552924e-02  2.66719979e-11  2.66524580e-11 
 5.48000000e-01  5.37789429e-12  5.36847725e-12  4.80850266e-02  5.10703748e-01  3.91417491e-10  1.37561074e-11  3.16802487e-12  4.80534001e-02  4.80110521e-02  2.67128542e-11  2.67235123e-11 
 5.49000000e-01  5.56126380e-12  5.56141888e-12  4.89800432e-02  5.12212424e-01  3.92224953e-10  1.41835432e-11  3.19059709e-12  4.89476978e-02  4.89042733e-02  2.68087774e-11  2.68070011e-11 
 5.50000000e-01  5.75734253e-12  5.74626166e-12  4.98729156e-02  5.13736070e-01  3.93032974e-10  1.46189727e-11  3.19555320e-12  4.98398600e-02  4.97954573e-02  2.68727263e-11  2.68709499e-11 
 5.51000000e-01  5.96021975e-12  5.94104871e-12  5.07613206e-02  5.15190916e-01  3.93841487e-10  1.50712776e-11  3.23624287e-12  5.07274852e-02  5.06820252e-02  2.69455569e-11  2.69366751e-11 
 5.52000000e-01  6.15530480e-12  6.14431275e-12  5.16532651e-02  5.16626973e-01  3.94650568e-10  1.55326862e-11  3.25183630e-12  5.16186256e-02  5.15719668e-02  2.70041767e-11  2.70006240e-11 
 5.53000000e-01  6.37589725e-12  6.36100109e-12  5.26113398e-02  5.18062298e-01  3.95460084e-10  1.60105262e-11  3.27428883e-12  5.25758001e-02  5.25278736e-02  2.71036527e-11  2.70770073e-11 
 5.54000000e-01  6.59606953e-12  6.57000491e-12  5.35334839e-02  5.19487118e-01  3.96270183e-10  1.64985803e-11  3.28919184e-12  5.34970643e-02  5.34479313e-02  2.72031286e-11  2.71498379e-11 
 5.55000000e-01  6.81116291e-12  6.79866301e-12  5.44394339e-02  5.20890183e-01  3.97080771e-10  1.70057302e-11  3.31784773e-12  5.44021024e-02  5.43516104e-02  2.72812883e-11  2.72866174e-11 
 5.56000000e-01  7.05001778e-12  7.02735074e-12  5.54259274e-02  5.22294795e-01  3.97891861e-10  1.75284232e-11  3.32275527e-12  5.53875761e-02  5.53356769e-02  2.73701062e-11  2.73612244e-11 
 5.57000000e-01  7.29280507e-12  7.27181996e-12  5.64038438e-02  5.23677818e-01  3.98703535e-10  1.80673254e-11  3.33599467e-12  5.63644309e-02  5.63109998e-02  2.75317547e-11  2.75282019e-11 
 5.58000000e-01  7.53674715e-12  7.51782838e-12  5.73567698e-02  5.25003306e-01  3.99515633e-10  1.86153315e-11  3.36491078e-12  5.73162629e-02  5.72612622e-02  2.76472178e-11  2.75708345e-11 
 5.59000000e-01  7.78962837e-12  7.77334477e-12  5.83488277e-02  5.26395731e-01  4.00328379e-10  1.91850980e-11  3.36096428e-12  5.83072035e-02  5.82506021e-02  2.77537993e-11  2.77360357e-11 
 5.60000000e-01  8.04821301e-12  8.03499995e-12  5.93027990e-02  5.27671299e-01  4.01141563e-10  1.97695194e-11  3.40710966e-12  5.92599641e-02  5.92016426e-02  2.78692625e-11  2.78763679e-11 
 5.61000000e-01  8.32301768e-12  8.30353885e-12  6.03263582e-02  5.28993733e-01  4.01955265e-10  2.03708161e-11  3.41229649e-12  6.02822414e-02  6.02221076e-02  2.80433454e-11  2.80397927e-11 
 5.62000000e-01  8.60387060e-12  8.59238259e-12  6.13386501e-02  5.30263693e-01  4.02769539e-10  2.09898765e-11  3.44083442e-12  6.12931725e-02  6.12310684e-02  2.82103230e-11  2.81854540e-11 
 5.63000000e-01  8.89493255e-12  8.87312833e-12  6.23362128e-02  5.31551905e-01  4.03584315e-10  2.16302531e-11  3.45837768e-12  6.22893681e-02  6.22253504e-02  2.83915114e-11  2.83435497e-11 
 5.64000000e-01  9.19119019e-12  9.17445951e-12  6.33410138e-02  5.32862146e-01  4.04399601e-10  2.22879493e-11  3.46185233e-12  6.32927798e-02  6.32267508e-02  2.85176327e-11  2.85034218e-11 
 5.65000000e-01  9.49911687e-12  9.48203501e-12  6.43678452e-02  5.34140201e-01  4.05215479e-10  2.29642971e-11  3.47424173e-12  6.43181190e-02  6.42499652e-02  2.86899393e-11  2.86881630e-11 
 5.66000000e-01  9.82255829e-12  9.78805155e-12  6.53823810e-02  5.35372629e-01  4.06031856e-10  2.36624054e-11  3.50765944e-12  6.53310784e-02  6.52607518e-02  2.88711277e-11  2.88338242e-11 
 5.67000000e-01  1.01552275e-11  1.01256775e-11  6.64486060e-02  5.36636433e-01  4.06848745e-10  2.43800535e-11  3.51113756e-12  6.63956385e-02  6.63228960e-02  2.90754087e-11  2.90949487e-11 
 5.68000000e-01  1.04979883e-11  1.04601282e-11  6.74804937e-02  5.37892406e-01  4.07666160e-10  2.51167975e-11  3.52014598e-12  6.74258602e-02  6.73507717e-02  2.93116642e-11  2.92459390e-11 
 5.69000000e-01  1.08497127e-11  1.08060174e-11  6.85305760e-02  5.39117465e-01  4.08484153e-10  2.58801869e-11  3.53754352e-12  6.84741464e-02  6.83965352e-02  2.95106162e-11  2.94910762e-11 
 5.70000000e-01  1.12056791e-11  1.11654347e-11  6.95573182e-02  5.40343952e-01  4.09302667e-10  2.66626721e-11  3.53825649e-12  6.94990835e-02  6.94188733e-02  2.97717406e-11  2.97202263e-11 
 5.71000000e-01  1.15793910e-11  1.15394310e-11  7.06218249e-02  5.41525437e-01  4.10121691e-10  2.74709144e-11  3.57603183e-12  7.05615994e-02  7.04785352e-02  2.99937852e-11  3.00044434e-11 
 5.72000000e-01  1.19691242e-11  1.19199294e-11  7.16892302e-02  5.42752723e-01  4.10941232e-10  2.82995849e-11  3.57731726e-12  7.16270073e-02  7.15410918e-02  3.02815550e-11  3.02602388e-11 
 5.73000000e-01  1.23651288e-11  1.23200795e-11  7.27602456e-02  5.43949795e-01  4.11761315e-10  2.91593416e-11  3.59434184e-12  7.26959025e-02  7.26069500e-02  3.05586667e-11  3.05000469e-11 
 5.74000000e-01  1.27846324e-11  1.27192608e-11  7.38361318e-02  5.45132602e-01  4.12582020e-10  3.00413028e-11  3.61571537e-12  7.37695747e-02  7.36775188e-02  3.08535419e-11  3.08375547e-11 
 5.75000000e-01  1.31943689e-11  1.31526119e-11  7.48992233e-02  5.46323036e-01  4.13403187e-10  3.09463566e-11  3.62316600e-12  7.48304190e-02  7.47350641e-02  3.11537462e-11  3.11057846e-11 
 5.76000000e-01  1.36326875e-11  1.35829159e-11  7.59722909e-02  5.47502927e-01  4.14224887e-10  3.18811644e-11  3.62912998e-12  7.59011230e-02  7.58023959e-02  3.14699378e-11  3.14308579e-11 
 5.77000000e-01  1.40822072e-11  1.40226504e-11  7.70533802e-02  5.48669346e-01  4.15047160e-10  3.28377325e-11  3.64782857e-12  7.69797432e-02  7.68775135e-02  3.17914584e-11  3.17417204e-11 
 5.78000000e-01  1.45528764e-11  1.44811150e-11  7.81323961e-02  5.49844360e-01  4.15869967e-10  3.38307160e-11  3.65023116e-12  7.80562081e-02  7.79503717e-02  3.21325189e-11  3.20472537e-11 
 5.79000000e-01  1.50289611e-11  1.49684373e-11  7.92219762e-02  5.51000931e-01  4.16693305e-10  3.48507889e-11  3.66331618e-12  7.91430965e-02  7.90333208e-02  3.25144356e-11  3.24664740e-11 
 5.80000000e-01  1.55268615e-11  1.54541611e-11  8.03162623e-02  5.52151535e-01  4.17517217e-10  3.58988395e-11  3.67700315e-12  8.02345857e-02  8.01208543e-02  3.28750360e-11  3.28306271e-11 
 5.81000000e-01  1.60381786e-11  1.59621455e-11  8.14255185e-02  5.53294180e-01  4.18341611e-10  3.69788644e-11  3.68963367e-12  8.13408877e-02  8.12229381e-02  3.32978090e-11  3.32249783e-11 
 5.82000000e-01  1.65635945e-11  1.64801637e-11  8.24941791e-02  5.54441821e-01  4.19166581e-10  3.80904197e-11  3.71430491e-12  8.24066094e-02  8.22844574e-02  3.36726202e-11  3.36353168e-11 
 5.83000000e-01  1.70979102e-11  1.70181874e-11  8.35653047e-02  5.55579802e-01  4.19992092e-10  3.92335053e-11  3.72313465e-12  8.34746630e-02  8.33480217e-02  3.40971695e-11  3.39888118e-11 
 5.84000000e-01  1.76597312e-11  1.75783713e-11  8.46835673e-02  5.56697445e-01  4.20818136e-10  4.04156708e-11  3.75462855e-12  8.45895740e-02  8.44581507e-02  3.45465878e-11  3.44826390e-11 
 5.85000000e-01  1.82346842e-11  1.81384465e-11  8.57636631e-02  5.57838229e-01  4.21644818e-10  4.16227053e-11  3.75420528e-12  8.56663701e-02  8.55302551e-02  3.49942297e-11  3.49089646e-11 
 5.86000000e-01  1.88347640e-11  1.87325394e-11  8.68652801e-02  5.58954531e-01  4.22471916e-10  4.28777014e-11  3.77567595e-12  8.67644334e-02  8.66232284e-02  3.54987151e-11  3.53850282e-11 
 5.87000000e-01  1.94552662e-11  1.93286414e-11  8.79647789e-02  5.60083912e-01  4.23299671e-10  4.41584547e-11  3.77045790e-12  8.78603113e-02  8.77140180e-02  3.60387276e-11  3.59268171e-11 
 5.88000000e-01  2.00914141e-11  1.99700623e-11  8.90746507e-02  5.61196165e-01  4.24127907e-10  4.54858373e-11  3.78214300e-12  8.89663340e-02  8.88143890e-02  3.65254493e-11  3.64472896e-11 
 5.89000000e-01  2.07425805e-11  2.06219031e-11  9.01781329e-02  5.62301089e-01  4.24956727e-10  4.68456385e-11  3.81147544e-12  9.00658480e-02  8.99081866e-02  3.70690145e-11  3.69251296e-11 
 5.90000000e-01  2.14172400e-11  2.12798053e-11  9.12744906e-02  5.63421533e-01  4.25786137e-10  4.82467399e-11  3.79051651e-12  9.11581578e-02  9.09947474e-02  3.76161324e-11  3.74829057e-11 
 5.91000000e-01  2.21067053e-11  2.19628146e-11  9.23652731e-02  5.64522683e-01  4.26615981e-10  4.96860331e-11  3.81365772e-12  9.22447263e-02  9.20752431e-02  3.82236465e-11  3.80744325e-11 
 5.92000000e-01  2.28138239e-11  2.26736663e-11  9.34492729e-02  5.65616340e-01  4.27446480e-10  5.11732878e-11  3.83316122e-12  9.33243449e-02  9.31485245e-02  3.88080679e-11  3.86961574e-11 
 5.93000000e-01  2.35527682e-11  2.33997526e-11  9.45491208e-02  5.66723626e-01  4.28277510e-10  5.26996224e-11  3.82059315e-12  9.44196524e-02  9.42373348e-02  3.94493327e-11  3.92557098e-11 
 5.94000000e-01  2.43053884e-11  2.41384118e-11  9.56321232e-02  5.67799904e-01  4.29109146e-10  5.42712542e-11  3.86522585e-12  9.54979186e-02  9.53087638e-02  4.00763867e-11  3.99289490e-11 
 5.95000000e-01  2.50920345e-11  2.49148523e-11  9.67392697e-02  5.68907828e-01  4.29941258e-10  5.58935120e-11  3.83899336e-12  9.66001552e-02  9.64040105e-02  4.07993639e-11  4.05862011e-11 
 5.96000000e-01  2.58965852e-11  2.57017968e-11  9.78212578e-02  5.69983389e-01  4.30773979e-10  5.75548498e-11  3.86382419e-12  9.76770717e-02  9.74736697e-02  4.14566159e-11  4.12860857e-11 
 5.97000000e-01  2.67310237e-11  2.65264923e-11  9.89171259e-02  5.71070073e-01  4.31607176e-10  5.92685900e-11  3.87599675e-12  9.87676538e-02  9.85566260e-02  4.21636059e-11  4.19966284e-11 
 5.98000000e-01  2.75836288e-11  2.73675602e-11  1.00004756e-01  5.72138904e-01  4.32441041e-10  6.10320683e-11  3.91056458e-12  9.98497818e-02  9.96308163e-02  4.29238867e-11  4.27196056e-11 
 5.99000000e-01  2.84687232e-11  2.82296441e-11  1.01107398e-01  5.73232229e-01  4.33275430e-10  6.28470609e-11  3.89260672e-12  1.00946746e-01  1.00719717e-01  4.37516690e-11  4.34745573e-11 
 6.00000000e-01  2.93848652e-11  2.91304573e-11  1.02195017e-01  5.74314773e-01  4.34110336e-10  6.47104592e-11  3.89528167e-12  1.02028513e-01  1.01793072e-01  4.45101733e-11  4.42845760e-11 
 6.01000000e-01  3.03297701e-11  3.00450619e-11  1.03289565e-01  5.75384068e-01  4.34945887e-10  6.66293687e-11  3.90657992e-12  1.03116921e-01  1.02872694e-01  4.53805882e-11  4.51070292e-11 
