 v-sweep         i(VloutI)       i(VldumpI)      v(Vin)          v(Vgate)        v(d0)           i(vini)         i(vgatei)       v(vloutv)       v(vldumpv)      i(vout)         i(vdump)       
 0.00000000e+00 -3.20327710e-07 -3.20308064e-07  0.00000000e+00  1.14302924e+00  2.09654219e-09 -6.40634841e-07 -4.93228143e-12  1.21597341e-02  3.09069048e-02 -3.19757254e-07 -3.19755019e-07 
 1.00000000e-03 -3.20326663e-07 -3.20306897e-07  1.00000000e-03  1.14302924e+00  2.09654219e-09 -6.40632561e-07 -4.94132823e-12  1.31844138e-02  3.19722060e-02 -3.19757183e-07 -3.19754836e-07 
 2.00000000e-03 -3.20325609e-07 -3.20305741e-07  2.00000000e-03  1.14302924e+00  2.09654219e-09 -6.40630285e-07 -4.92545675e-12  1.42093042e-02  3.30380999e-02 -3.19757037e-07 -3.19754655e-07 
 3.00000000e-03 -3.20324562e-07 -3.20304589e-07  3.00000000e-03  1.14302924e+00  2.09654219e-09 -6.40628022e-07 -4.94467980e-12  1.52342486e-02  3.41041455e-02 -3.19756989e-07 -3.19754504e-07 
 4.00000000e-03 -3.20323501e-07 -3.20303448e-07  4.00000000e-03  1.14302924e+00  2.09654219e-09 -6.40625753e-07 -4.92826907e-12  1.62592997e-02  3.51704924e-02 -3.19756857e-07 -3.19754273e-07 
 5.00000000e-03 -3.20322422e-07 -3.20302265e-07  5.00000000e-03  1.14302924e+00  2.09654219e-09 -6.40623424e-07 -4.93310338e-12  1.72844573e-02  3.62371385e-02 -3.19756751e-07 -3.19754099e-07 
 6.00000000e-03 -3.20321369e-07 -3.20301108e-07  6.00000000e-03  1.14302924e+00  2.09654219e-09 -6.40621149e-07 -4.93515312e-12  1.83097244e-02  3.73040927e-02 -3.19756614e-07 -3.19753916e-07 
 7.00000000e-03 -3.20320309e-07 -3.20299928e-07  7.00000000e-03  1.14302924e+00  2.09654219e-09 -6.40618846e-07 -4.94763714e-12  1.93350999e-02  3.83713523e-02 -3.19756538e-07 -3.19753708e-07 
 8.00000000e-03 -3.20319217e-07 -3.20298763e-07  8.00000000e-03  1.14302924e+00  2.09654219e-09 -6.40616524e-07 -4.93360609e-12  2.03605848e-02  3.94389222e-02 -3.19756412e-07 -3.19753514e-07 
 9.00000000e-03 -3.20318145e-07 -3.20297571e-07  9.00000000e-03  1.14302924e+00  2.09654219e-09 -6.40614199e-07 -4.93442700e-12  2.13861802e-02  4.05068020e-02 -3.19756273e-07 -3.19753322e-07 
 1.00000000e-02 -3.20317068e-07 -3.20296377e-07  1.00000000e-02  1.14302924e+00  2.09654219e-09 -6.40611861e-07 -4.93304445e-12  2.24118866e-02  4.15749955e-02 -3.19756165e-07 -3.19753068e-07 
 1.10000000e-02 -3.20315993e-07 -3.20295183e-07  1.10000000e-02  1.14302924e+00  2.09654219e-09 -6.40609528e-07 -4.93298836e-12  2.34377051e-02  4.26435055e-02 -3.19756003e-07 -3.19752839e-07 
 1.20000000e-02 -3.20314892e-07 -3.20294009e-07  1.20000000e-02  1.14302924e+00  2.09654219e-09 -6.40607185e-07 -4.92849941e-12  2.44636361e-02  4.37123352e-02 -3.19755873e-07 -3.19752635e-07 
 1.30000000e-02 -3.20313816e-07 -3.20292794e-07  1.30000000e-02  1.14302924e+00  2.09654219e-09 -6.40604834e-07 -4.92676129e-12  2.54896804e-02  4.47814832e-02 -3.19755779e-07 -3.19752393e-07 
 1.40000000e-02 -3.20312735e-07 -3.20291582e-07  1.40000000e-02  1.14302924e+00  2.09654219e-09 -6.40602478e-07 -4.91903303e-12  2.65158388e-02  4.58509546e-02 -3.19755646e-07 -3.19752145e-07 
 1.50000000e-02 -3.20311669e-07 -3.20290370e-07  1.50000000e-02  1.14302924e+00  2.09654219e-09 -6.40600135e-07 -4.92991518e-12  2.75421126e-02  4.69207519e-02 -3.19755461e-07 -3.19751901e-07 
 1.60000000e-02 -3.20310526e-07 -3.20289115e-07  1.60000000e-02  1.14302924e+00  2.09654219e-09 -6.40597676e-07 -4.92781347e-12  2.85684999e-02  4.79908726e-02 -3.19755323e-07 -3.19751669e-07 
 1.70000000e-02 -3.20309459e-07 -3.20287914e-07  1.70000000e-02  1.14302924e+00  2.09654219e-09 -6.40595343e-07 -4.91909912e-12  2.95950062e-02  4.90613292e-02 -3.19755198e-07 -3.19751420e-07 
 1.80000000e-02 -3.20308361e-07 -3.20286664e-07  1.80000000e-02  1.14302924e+00  2.09654219e-09 -6.40592925e-07 -4.92865635e-12  3.06216282e-02  5.01321141e-02 -3.19755040e-07 -3.19751093e-07 
 1.90000000e-02 -3.20307239e-07 -3.20285408e-07  1.90000000e-02  1.14302924e+00  2.09654219e-09 -6.40590487e-07 -4.93593948e-12  3.16483680e-02  5.12032338e-02 -3.19754854e-07 -3.19750859e-07 
 2.00000000e-02 -3.20306144e-07 -3.20284160e-07  2.00000000e-02  1.14302924e+00  2.09654219e-09 -6.40588082e-07 -4.93089639e-12  3.26752274e-02  5.22746924e-02 -3.19754704e-07 -3.19750537e-07 
 2.10000000e-02 -3.20305024e-07 -3.20282893e-07  2.10000000e-02  1.14302924e+00  2.09654219e-09 -6.40585629e-07 -4.93024598e-12  3.37022056e-02  5.33464892e-02 -3.19754555e-07 -3.19750219e-07 
 2.20000000e-02 -3.20303898e-07 -3.20281624e-07  2.20000000e-02  1.14302924e+00  2.09654219e-09 -6.40583172e-07 -4.93658457e-12  3.47293044e-02  5.44186289e-02 -3.19754369e-07 -3.19749923e-07 
 2.30000000e-02 -3.20302803e-07 -3.20280358e-07  2.30000000e-02  1.14302924e+00  2.09654219e-09 -6.40580750e-07 -4.92859290e-12  3.57565252e-02  5.54911150e-02 -3.19754225e-07 -3.19749626e-07 
 2.40000000e-02 -3.20301674e-07 -3.20279079e-07  2.40000000e-02  1.14302924e+00  2.09654219e-09 -6.40578280e-07 -4.93748817e-12  3.67838674e-02  5.65639475e-02 -3.19754067e-07 -3.19749292e-07 
 2.50000000e-02 -3.20300560e-07 -3.20277757e-07  2.50000000e-02  1.14302924e+00  2.09654219e-09 -6.40575785e-07 -4.93511405e-12  3.78113322e-02  5.76371274e-02 -3.19753847e-07 -3.19748935e-07 
 2.60000000e-02 -3.20299417e-07 -3.20276447e-07  2.60000000e-02  1.14302924e+00  2.09654219e-09 -6.40573262e-07 -4.93616701e-12  3.88389204e-02  5.87106606e-02 -3.19753630e-07 -3.19748590e-07 
 2.70000000e-02 -3.20298283e-07 -3.20275139e-07  2.70000000e-02  1.14302924e+00  2.09654219e-09 -6.40570761e-07 -4.93940753e-12  3.98666338e-02  5.97845509e-02 -3.19753420e-07 -3.19748231e-07 
 2.80000000e-02 -3.20297132e-07 -3.20273803e-07  2.80000000e-02  1.14302924e+00  2.09654219e-09 -6.40568212e-07 -4.93070048e-12  4.08944720e-02  6.08587969e-02 -3.19753232e-07 -3.19747832e-07 
 2.90000000e-02 -3.20296000e-07 -3.20272469e-07  2.90000000e-02  1.14302924e+00  2.09654219e-09 -6.40565680e-07 -4.93692127e-12  4.19224370e-02  6.19334044e-02 -3.19753040e-07 -3.19747473e-07 
 3.00000000e-02 -3.20294852e-07 -3.20271139e-07  3.00000000e-02  1.14302924e+00  2.09654219e-09 -6.40563142e-07 -4.92899696e-12  4.29505294e-02  6.30083771e-02 -3.19752807e-07 -3.19747139e-07 
 3.10000000e-02 -3.20293716e-07 -3.20269772e-07  3.10000000e-02  1.14302924e+00  2.09654219e-09 -6.40560578e-07 -4.93662771e-12  4.39787495e-02  6.40837135e-02 -3.19752568e-07 -3.19746698e-07 
 3.20000000e-02 -3.20292534e-07 -3.20268378e-07  3.20000000e-02  1.14302924e+00  2.09654219e-09 -6.40557935e-07 -4.93329518e-12  4.50070974e-02  6.51594164e-02 -3.19752342e-07 -3.19746279e-07 
 3.30000000e-02 -3.20291377e-07 -3.20267010e-07  3.30000000e-02  1.14302924e+00  2.09654219e-09 -6.40555352e-07 -4.93646062e-12  4.60355765e-02  6.62354950e-02 -3.19752118e-07 -3.19745862e-07 
 3.40000000e-02 -3.20290200e-07 -3.20265619e-07  3.40000000e-02  1.14302924e+00  2.09654219e-09 -6.40552724e-07 -4.92997104e-12  4.70641858e-02  6.73119470e-02 -3.19751864e-07 -3.19745419e-07 
 3.50000000e-02 -3.20289010e-07 -3.20264221e-07  3.50000000e-02  1.14302924e+00  2.09654219e-09 -6.40550069e-07 -4.94342342e-12  4.80929266e-02  6.83887758e-02 -3.19751591e-07 -3.19744968e-07 
 3.60000000e-02 -3.20287832e-07 -3.20262785e-07  3.60000000e-02  1.14302924e+00  2.09654219e-09 -6.40547393e-07 -4.93411842e-12  4.91217998e-02  6.94659836e-02 -3.19751376e-07 -3.19744485e-07 
 3.70000000e-02 -3.20286645e-07 -3.20261346e-07  3.70000000e-02  1.14302924e+00  2.09654219e-09 -6.40544705e-07 -4.92465247e-12  5.01508066e-02  7.05435753e-02 -3.19751113e-07 -3.19743959e-07 
 3.80000000e-02 -3.20285446e-07 -3.20259912e-07  3.80000000e-02  1.14302924e+00  2.09654219e-09 -6.40542014e-07 -4.92655919e-12  5.11799482e-02  7.16215550e-02 -3.19750837e-07 -3.19743474e-07 
 3.90000000e-02 -3.20284228e-07 -3.20258420e-07  3.90000000e-02  1.14302924e+00  2.09654219e-09 -6.40539239e-07 -4.93308836e-12  5.22092238e-02  7.26999191e-02 -3.19750542e-07 -3.19743002e-07 
 4.00000000e-02 -3.20283029e-07 -3.20256963e-07  4.00000000e-02  1.14302924e+00  2.09654219e-09 -6.40536522e-07 -4.93121152e-12  5.32386374e-02  7.37786803e-02 -3.19750256e-07 -3.19742471e-07 
 4.10000000e-02 -3.20281812e-07 -3.20255455e-07  4.10000000e-02  1.14302924e+00  2.09654219e-09 -6.40533736e-07 -4.93369881e-12  5.42681873e-02  7.48578335e-02 -3.19749940e-07 -3.19741888e-07 
 4.20000000e-02 -3.20280561e-07 -3.20253968e-07  4.20000000e-02  1.14302924e+00  2.09654219e-09 -6.40530941e-07 -4.94454443e-12  5.52978756e-02  7.59373875e-02 -3.19749681e-07 -3.19741352e-07 
 4.30000000e-02 -3.20279363e-07 -3.20252447e-07  4.30000000e-02  1.14302924e+00  2.09654219e-09 -6.40528155e-07 -4.92196670e-12  5.63277040e-02  7.70173422e-02 -3.19749327e-07 -3.19740783e-07 
 4.40000000e-02 -3.20278095e-07 -3.20250887e-07  4.40000000e-02  1.14302924e+00  2.09654219e-09 -6.40525268e-07 -4.93361646e-12  5.73576709e-02  7.80976989e-02 -3.19749018e-07 -3.19740195e-07 
 4.50000000e-02 -3.20276842e-07 -3.20249337e-07  4.50000000e-02  1.14302924e+00  2.09654219e-09 -6.40522401e-07 -4.93311603e-12  5.83877800e-02  7.91784657e-02 -3.19748706e-07 -3.19739588e-07 
 4.60000000e-02 -3.20275600e-07 -3.20247744e-07  4.60000000e-02  1.14302924e+00  2.09654219e-09 -6.40519511e-07 -4.93218902e-12  5.94180314e-02  8.02596418e-02 -3.19748347e-07 -3.19738927e-07 
 4.70000000e-02 -3.20274321e-07 -3.20246149e-07  4.70000000e-02  1.14302924e+00  2.09654219e-09 -6.40516571e-07 -4.93254854e-12  6.04484255e-02  8.13412324e-02 -3.19748034e-07 -3.19738245e-07 
 4.80000000e-02 -3.20273027e-07 -3.20244511e-07  4.80000000e-02  1.14302924e+00  2.09654219e-09 -6.40513573e-07 -4.93296639e-12  6.14789633e-02  8.24232383e-02 -3.19747633e-07 -3.19737591e-07 
 4.90000000e-02 -3.20271758e-07 -3.20242904e-07  4.90000000e-02  1.14302924e+00  2.09654219e-09 -6.40510634e-07 -4.92957870e-12  6.25096482e-02  8.35056705e-02 -3.19747276e-07 -3.19736900e-07 
 5.00000000e-02 -3.20270452e-07 -3.20241243e-07  5.00000000e-02  1.14302924e+00  2.09654219e-09 -6.40507610e-07 -4.92406635e-12  6.35404784e-02  8.45885235e-02 -3.19746892e-07 -3.19736179e-07 
 5.10000000e-02 -3.20269136e-07 -3.20239573e-07  5.10000000e-02  1.14302924e+00  2.09654219e-09 -6.40504557e-07 -4.93664882e-12  6.45714560e-02  8.56718049e-02 -3.19746496e-07 -3.19735477e-07 
 5.20000000e-02 -3.20267810e-07 -3.20237838e-07  5.20000000e-02  1.14302924e+00  2.09654219e-09 -6.40501441e-07 -4.93249205e-12  6.56025815e-02  8.67555133e-02 -3.19746093e-07 -3.19734728e-07 
 5.30000000e-02 -3.20266492e-07 -3.20236142e-07  5.30000000e-02  1.14302924e+00  2.09654219e-09 -6.40498364e-07 -4.92869123e-12  6.66338580e-02  8.78396621e-02 -3.19745661e-07 -3.19733939e-07 
 5.40000000e-02 -3.20265159e-07 -3.20234392e-07  5.40000000e-02  1.14302924e+00  2.09654219e-09 -6.40495218e-07 -4.92812380e-12  6.76652846e-02  8.89242460e-02 -3.19745249e-07 -3.19733136e-07 
 5.50000000e-02 -3.20263809e-07 -3.20232607e-07  5.50000000e-02  1.14302924e+00  2.09654219e-09 -6.40492028e-07 -4.91906553e-12  6.86968626e-02  9.00092705e-02 -3.19744816e-07 -3.19732312e-07 
 5.60000000e-02 -3.20262438e-07 -3.20230818e-07  5.60000000e-02  1.14302924e+00  2.09654219e-09 -6.40488799e-07 -4.94035783e-12  6.97285934e-02  9.10947409e-02 -3.19744366e-07 -3.19731434e-07 
 5.70000000e-02 -3.20261068e-07 -3.20228987e-07  5.70000000e-02  1.14302924e+00  2.09654219e-09 -6.40485534e-07 -4.94287145e-12  7.07604783e-02  9.21806589e-02 -3.19743936e-07 -3.19730567e-07 
 5.80000000e-02 -3.20259679e-07 -3.20227140e-07  5.80000000e-02  1.14302924e+00  2.09654219e-09 -6.40482242e-07 -4.93580065e-12  7.17925186e-02  9.32670308e-02 -3.19743428e-07 -3.19729676e-07 
 5.90000000e-02 -3.20258268e-07 -3.20225263e-07  5.90000000e-02  1.14302924e+00  2.09654219e-09 -6.40478898e-07 -4.93215216e-12  7.28247149e-02  9.43538582e-02 -3.19742968e-07 -3.19728699e-07 
 6.00000000e-02 -3.20256859e-07 -3.20223364e-07  6.00000000e-02  1.14302924e+00  2.09654219e-09 -6.40475525e-07 -4.93440552e-12  7.38570688e-02  9.54411459e-02 -3.19742423e-07 -3.19727762e-07 
 6.10000000e-02 -3.20255409e-07 -3.20221433e-07  6.10000000e-02  1.14302924e+00  2.09654219e-09 -6.40472074e-07 -4.93013035e-12  7.48895806e-02  9.65288954e-02 -3.19741869e-07 -3.19726750e-07 
 6.20000000e-02 -3.20253966e-07 -3.20219449e-07  6.20000000e-02  1.14302924e+00  2.09654219e-09 -6.40468593e-07 -4.94071850e-12  7.59222525e-02  9.76171122e-02 -3.19741357e-07 -3.19725705e-07 
 6.30000000e-02 -3.20252495e-07 -3.20217469e-07  6.30000000e-02  1.14302924e+00  2.09654219e-09 -6.40465079e-07 -4.93819704e-12  7.69550855e-02  9.87058025e-02 -3.19740813e-07 -3.19724629e-07 
 6.40000000e-02 -3.20251057e-07 -3.20215463e-07  6.40000000e-02  1.14302924e+00  2.09654219e-09 -6.40461578e-07 -4.92742332e-12  7.79880820e-02  9.97949698e-02 -3.19740259e-07 -3.19723588e-07 
 6.50000000e-02 -3.20249540e-07 -3.20213389e-07  6.50000000e-02  1.14302924e+00  2.09654219e-09 -6.40457927e-07 -4.93429432e-12  7.90212397e-02  1.00884611e-01 -3.19739623e-07 -3.19722446e-07 
 6.60000000e-02 -3.20248072e-07 -3.20211314e-07  6.60000000e-02  1.14302924e+00  2.09654219e-09 -6.40454324e-07 -4.92472663e-12  8.00545640e-02  1.01974740e-01 -3.19739058e-07 -3.19721316e-07 
 6.70000000e-02 -3.20246525e-07 -3.20209171e-07  6.70000000e-02  1.14302924e+00  2.09654219e-09 -6.40450570e-07 -4.94266285e-12  8.10880521e-02  1.03065352e-01 -3.19738412e-07 -3.19720101e-07 
 6.80000000e-02 -3.20244962e-07 -3.20207011e-07  6.80000000e-02  1.14302924e+00  2.09654219e-09 -6.40446783e-07 -4.92954292e-12  8.21217076e-02  1.04156457e-01 -3.19737786e-07 -3.19718893e-07 
 6.90000000e-02 -3.20243426e-07 -3.20204811e-07  6.90000000e-02  1.14302924e+00  2.09654219e-09 -6.40442996e-07 -4.92623805e-12  8.31555326e-02  1.05248059e-01 -3.19737131e-07 -3.19717612e-07 
 7.00000000e-02 -3.20241843e-07 -3.20202559e-07  7.00000000e-02  1.14302924e+00  2.09654219e-09 -6.40439086e-07 -4.93055092e-12  8.41895258e-02  1.06340156e-01 -3.19736451e-07 -3.19716316e-07 
 7.10000000e-02 -3.20240241e-07 -3.20200293e-07  7.10000000e-02  1.14302924e+00  2.09654219e-09 -6.40435162e-07 -4.93585296e-12  8.52236908e-02  1.07432762e-01 -3.19735760e-07 -3.19714944e-07 
 7.20000000e-02 -3.20238649e-07 -3.20197977e-07  7.20000000e-02  1.14302924e+00  2.09654219e-09 -6.40431190e-07 -4.92081500e-12  8.62580282e-02  1.08525874e-01 -3.19735081e-07 -3.19713527e-07 
 7.30000000e-02 -3.20237008e-07 -3.20195589e-07  7.30000000e-02  1.14302924e+00  2.09654219e-09 -6.40427107e-07 -4.94258550e-12  8.72925380e-02  1.09619496e-01 -3.19734319e-07 -3.19712107e-07 
 7.40000000e-02 -3.20235349e-07 -3.20193183e-07  7.40000000e-02  1.14302924e+00  2.09654219e-09 -6.40422982e-07 -4.92796247e-12  8.83272231e-02  1.10713637e-01 -3.19733596e-07 -3.19710592e-07 
 7.50000000e-02 -3.20233659e-07 -3.20190720e-07  7.50000000e-02  1.14302924e+00  2.09654219e-09 -6.40418768e-07 -4.92848349e-12  8.93620839e-02  1.11808298e-01 -3.19732793e-07 -3.19709024e-07 
 7.60000000e-02 -3.20231979e-07 -3.20188244e-07  7.60000000e-02  1.14302924e+00  2.09654219e-09 -6.40414545e-07 -4.92788491e-12  9.03971234e-02  1.12903487e-01 -3.19731987e-07 -3.19707510e-07 
 7.70000000e-02 -3.20230261e-07 -3.20185678e-07  7.70000000e-02  1.14302924e+00  2.09654219e-09 -6.40410204e-07 -4.92705439e-12  9.14323407e-02  1.13999204e-01 -3.19731198e-07 -3.19705851e-07 
 7.80000000e-02 -3.20228499e-07 -3.20183068e-07  7.80000000e-02  1.14302924e+00  2.09654219e-09 -6.40405768e-07 -4.93455774e-12  9.24677377e-02  1.15095454e-01 -3.19730347e-07 -3.19704142e-07 
 7.90000000e-02 -3.20226751e-07 -3.20180433e-07  7.90000000e-02  1.14302924e+00  2.09654219e-09 -6.40401312e-07 -4.92449164e-12  9.35033175e-02  1.16192247e-01 -3.19729441e-07 -3.19702416e-07 
 8.00000000e-02 -3.20224953e-07 -3.20177727e-07  8.00000000e-02  1.14302924e+00  2.09654219e-09 -6.40396761e-07 -4.92833887e-12  9.45390799e-02  1.17289583e-01 -3.19728535e-07 -3.19700614e-07 
 8.10000000e-02 -3.20223129e-07 -3.20174969e-07  8.10000000e-02  1.14302924e+00  2.09654219e-09 -6.40392110e-07 -4.93358257e-12  9.55750263e-02  1.18387467e-01 -3.19727656e-07 -3.19698804e-07 
 8.20000000e-02 -3.20221283e-07 -3.20172164e-07  8.20000000e-02  1.14302924e+00  2.09654219e-09 -6.40387406e-07 -4.92833707e-12  9.66111591e-02  1.19485906e-01 -3.19726658e-07 -3.19696884e-07 
 8.30000000e-02 -3.20219427e-07 -3.20169263e-07  8.30000000e-02  1.14302924e+00  2.09654219e-09 -6.40382582e-07 -4.94021955e-12  9.76474784e-02  1.20584900e-01 -3.19725695e-07 -3.19694925e-07 
 8.40000000e-02 -3.20217511e-07 -3.20166330e-07  8.40000000e-02  1.14302924e+00  2.09654219e-09 -6.40377668e-07 -4.93073610e-12  9.86839864e-02  1.21684459e-01 -3.19724681e-07 -3.19692889e-07 
 8.50000000e-02 -3.20215582e-07 -3.20163307e-07  8.50000000e-02  1.14302924e+00  2.09654219e-09 -6.40372654e-07 -4.94250590e-12  9.97206843e-02  1.22784584e-01 -3.19723661e-07 -3.19690788e-07 
 8.60000000e-02 -3.20213628e-07 -3.20160249e-07  8.60000000e-02  1.14302924e+00  2.09654219e-09 -6.40367583e-07 -4.92330258e-12  1.00757575e-01  1.23885285e-01 -3.19722561e-07 -3.19688583e-07 
 8.70000000e-02 -3.20211660e-07 -3.20157107e-07  8.70000000e-02  1.14302924e+00  2.09654219e-09 -6.40362416e-07 -4.92528102e-12  1.01794658e-01  1.24986563e-01 -3.19721490e-07 -3.19686398e-07 
 8.80000000e-02 -3.20209628e-07 -3.20153902e-07  8.80000000e-02  1.14302924e+00  2.09654219e-09 -6.40357127e-07 -4.93109085e-12  1.02831936e-01  1.26088425e-01 -3.19720350e-07 -3.19684064e-07 
 8.90000000e-02 -3.20207583e-07 -3.20150635e-07  8.90000000e-02  1.14302924e+00  2.09654219e-09 -6.40351756e-07 -4.92468412e-12  1.03869411e-01  1.27190876e-01 -3.19719158e-07 -3.19681673e-07 
 9.00000000e-02 -3.20205499e-07 -3.20147262e-07  9.00000000e-02  1.14302924e+00  2.09654219e-09 -6.40346234e-07 -4.94132603e-12  1.04907082e-01  1.28293917e-01 -3.19718000e-07 -3.19679254e-07 
 9.10000000e-02 -3.20203374e-07 -3.20143812e-07  9.10000000e-02  1.14302924e+00  2.09654219e-09 -6.40340595e-07 -4.93182933e-12  1.05944952e-01  1.29397557e-01 -3.19716772e-07 -3.19676664e-07 
 9.20000000e-02 -3.20201228e-07 -3.20140302e-07  9.20000000e-02  1.14302924e+00  2.09654219e-09 -6.40334888e-07 -4.93460692e-12  1.06983024e-01  1.30501805e-01 -3.19715490e-07 -3.19674010e-07 
 9.30000000e-02 -3.20199058e-07 -3.20136717e-07  9.30000000e-02  1.14302924e+00  2.09654219e-09 -6.40329067e-07 -4.93821767e-12  1.08021299e-01  1.31606662e-01 -3.19714157e-07 -3.19671331e-07 
 9.40000000e-02 -3.20196796e-07 -3.20133052e-07  9.40000000e-02  1.14302924e+00  2.09654219e-09 -6.40323065e-07 -4.92846735e-12  1.09059776e-01  1.32712133e-01 -3.19712784e-07 -3.19668564e-07 
 9.50000000e-02 -3.20194547e-07 -3.20129238e-07  9.50000000e-02  1.14302924e+00  2.09654219e-09 -6.40316947e-07 -4.94109647e-12  1.10098459e-01  1.33818221e-01 -3.19711425e-07 -3.19665640e-07 
 9.60000000e-02 -3.20192227e-07 -3.20125384e-07  9.60000000e-02  1.14302924e+00  2.09654219e-09 -6.40310713e-07 -4.92839274e-12  1.11137350e-01  1.34924940e-01 -3.19709990e-07 -3.19662648e-07 
 9.70000000e-02 -3.20189901e-07 -3.20121422e-07  9.70000000e-02  1.14302924e+00  2.09654219e-09 -6.40304361e-07 -4.93254198e-12  1.12176450e-01  1.36032289e-01 -3.19708530e-07 -3.19659593e-07 
 9.80000000e-02 -3.20187506e-07 -3.20117313e-07  9.80000000e-02  1.14302924e+00  2.09654219e-09 -6.40297796e-07 -4.92952798e-12  1.13215759e-01  1.37140270e-01 -3.19706997e-07 -3.19656390e-07 
 9.90000000e-02 -3.20185077e-07 -3.20113176e-07  9.90000000e-02  1.14302924e+00  2.09654219e-09 -6.40291158e-07 -4.93531860e-12  1.14255282e-01  1.38248903e-01 -3.19705480e-07 -3.19653111e-07 
 1.00000000e-01 -3.20182632e-07 -3.20108907e-07  1.00000000e-01  1.14302924e+00  2.09654219e-09 -6.40284390e-07 -4.93910224e-12  1.15295019e-01  1.39358183e-01 -3.19703869e-07 -3.19649684e-07 
 1.01000000e-01 -3.20180071e-07 -3.20104488e-07  1.01000000e-01  1.14302924e+00  2.09654219e-09 -6.40277345e-07 -4.93415871e-12  1.16334969e-01  1.40468111e-01 -3.19702206e-07 -3.19646155e-07 
