 v-sweep         i(VloutI)       i(VldumpI)      v(Vin)          v(Vgate)        v(d0)           i(vini)         i(vgatei)       v(vloutv)       v(vldumpv)      i(vout)         i(vdump)       
 0.00000000e+00  2.56715239e-06  2.65707503e-08  3.61713352e-01  1.14302924e+00  2.09654220e-09  2.59373807e-06 -4.92764472e-12  2.37871671e-01  2.37173433e-01 -3.20336656e-07 -3.20336663e-07 
 1.00000000e-03  2.56715242e-06  2.65707391e-08  3.61713357e-01  1.14302924e+00  2.09654219e-09  2.59373811e-06 -4.92794902e-12  2.37871673e-01  2.37173434e-01 -2.42908753e-07 -3.08114304e-07 
 2.00000000e-03  2.56715243e-06  2.65707410e-08  3.61713353e-01  1.14302924e+00  2.09654219e-09  2.59373810e-06 -4.92462525e-12  2.37871671e-01  2.37173434e-01 -1.66895443e-07 -2.96210352e-07 
 3.00000000e-03  2.56715249e-06  2.65707214e-08  3.61713356e-01  1.14302924e+00  2.09654219e-09  2.59373817e-06 -4.93498897e-12  2.37871670e-01  2.37173434e-01 -9.22927509e-08 -2.84622704e-07 
 4.00000000e-03  2.56715244e-06  2.65707307e-08  3.61713356e-01  1.14302924e+00  2.09654219e-09  2.59373810e-06 -4.92725454e-12  2.37871672e-01  2.37173435e-01 -1.90964121e-08 -2.73349193e-07 
 5.00000000e-03  2.56715253e-06  2.65707330e-08  3.61713360e-01  1.14302924e+00  2.09654219e-09  2.59373819e-06 -4.92482914e-12  2.37871672e-01  2.37173434e-01  5.26980241e-08 -2.62387482e-07 
 6.00000000e-03  2.56715240e-06  2.65707348e-08  3.61713353e-01  1.14302924e+00  2.09654219e-09  2.59373807e-06 -4.92482131e-12  2.37871672e-01  2.37173434e-01  1.23095291e-07 -2.51735101e-07 
 7.00000000e-03  2.56715256e-06  2.65707542e-08  3.61713362e-01  1.14302924e+00  2.09654219e-09  2.59373822e-06 -4.93872354e-12  2.37871672e-01  2.37173435e-01  1.92100334e-07 -2.41389464e-07 
 8.00000000e-03  2.56715241e-06  2.65707308e-08  3.61713352e-01  1.14302924e+00  2.09654219e-09  2.59373808e-06 -4.94033275e-12  2.37871671e-01  2.37173433e-01  2.59718395e-07 -2.31347788e-07 
 9.00000000e-03  2.56715247e-06  2.65707585e-08  3.61713361e-01  1.14302924e+00  2.09654219e-09  2.59373814e-06 -4.93235310e-12  2.37871674e-01  2.37173433e-01  3.25955030e-07 -2.21607210e-07 
 1.00000000e-02  2.56715238e-06  2.65707265e-08  3.61713349e-01  1.14302924e+00  2.09654219e-09  2.59373804e-06 -4.94100253e-12  2.37871670e-01  2.37173433e-01  3.90816018e-07 -2.12164642e-07 
 1.10000000e-02  2.56715248e-06  2.65707197e-08  3.61713355e-01  1.14302924e+00  2.09654219e-09  2.59373813e-06 -4.93455748e-12  2.37871671e-01  2.37173435e-01  4.54307527e-07 -2.03016854e-07 
 1.20000000e-02  2.56715248e-06  2.65707363e-08  3.61713358e-01  1.14302924e+00  2.09654219e-09  2.59373816e-06 -4.93805382e-12  2.37871672e-01  2.37173434e-01  5.16436033e-07 -1.94160497e-07 
 1.30000000e-02  2.56715241e-06  2.65707232e-08  3.61713351e-01  1.14302924e+00  2.09654219e-09  2.59373807e-06 -4.93745219e-12  2.37871671e-01  2.37173435e-01  5.77208337e-07 -1.85591917e-07 
 1.40000000e-02  2.56715247e-06  2.65707256e-08  3.61713355e-01  1.14302924e+00  2.09654219e-09  2.59373815e-06 -4.93227926e-12  2.37871670e-01  2.37173432e-01  6.36631617e-07 -1.77307446e-07 
 1.50000000e-02  2.56715244e-06  2.65707185e-08  3.61713353e-01  1.14302924e+00  2.09654219e-09  2.59373811e-06 -4.94012144e-12  2.37871670e-01  2.37173435e-01  6.94713403e-07 -1.69303106e-07 
 1.60000000e-02  2.56715244e-06  2.65707482e-08  3.61713355e-01  1.14302924e+00  2.09654219e-09  2.59373811e-06 -4.93426704e-12  2.37871671e-01  2.37173434e-01  7.51461659e-07 -1.61574801e-07 
 1.70000000e-02  2.56715241e-06  2.65707433e-08  3.61713356e-01  1.14302924e+00  2.09654219e-09  2.59373809e-06 -4.93179725e-12  2.37871673e-01  2.37173434e-01  8.06884729e-07 -1.54118284e-07 
 1.80000000e-02  2.56715253e-06  2.65707065e-08  3.61713358e-01  1.14302924e+00  2.09654219e-09  2.59373817e-06 -4.93306476e-12  2.37871671e-01  2.37173435e-01  8.60991439e-07 -1.46929021e-07 
 1.90000000e-02  2.56715244e-06  2.65707709e-08  3.61713358e-01  1.14302924e+00  2.09654219e-09  2.59373813e-06 -4.93188130e-12  2.37871673e-01  2.37173433e-01  9.13790895e-07 -1.40002304e-07 
 2.00000000e-02  2.56715242e-06  2.65707474e-08  3.61713357e-01  1.14302924e+00  2.09654219e-09  2.59373810e-06 -4.92931683e-12  2.37871672e-01  2.37173434e-01  9.65292898e-07 -1.33333402e-07 
 2.10000000e-02  2.56715246e-06  2.65707189e-08  3.61713356e-01  1.14302924e+00  2.09654219e-09  2.59373813e-06 -4.93486165e-12  2.37871672e-01  2.37173436e-01  1.01550756e-06 -1.26917237e-07 
 2.20000000e-02  2.56715242e-06  2.65707376e-08  3.61713357e-01  1.14302924e+00  2.09654219e-09  2.59373810e-06 -4.93561221e-12  2.37871672e-01  2.37173434e-01  1.06444547e-06 -1.20748568e-07 
 2.30000000e-02  2.56715241e-06  2.65707352e-08  3.61713351e-01  1.14302924e+00  2.09654219e-09  2.59373809e-06 -4.93606225e-12  2.37871670e-01  2.37173433e-01  1.11211782e-06 -1.14822074e-07 
 2.40000000e-02  2.56715245e-06  2.65707358e-08  3.61713355e-01  1.14302924e+00  2.09654219e-09  2.59373813e-06 -4.92628515e-12  2.37871671e-01  2.37173432e-01  1.15853631e-06 -1.09132229e-07 
 2.50000000e-02  2.56715247e-06  2.65707416e-08  3.61713358e-01  1.14302924e+00  2.09654219e-09  2.59373816e-06 -4.93841588e-12  2.37871671e-01  2.37173433e-01  1.20371306e-06 -1.03673342e-07 
 2.60000000e-02  2.56715242e-06  2.65707436e-08  3.61713356e-01  1.14302924e+00  2.09654219e-09  2.59373811e-06 -4.93348335e-12  2.37871672e-01  2.37173433e-01  1.24766079e-06 -9.84395946e-08 
 2.70000000e-02  2.56715247e-06  2.65707117e-08  3.61713352e-01  1.14302924e+00  2.09654219e-09  2.59373813e-06 -4.92535788e-12  2.37871669e-01  2.37173435e-01  1.29039290e-06 -9.34250555e-08 
 2.80000000e-02  2.56715249e-06  2.65707308e-08  3.61713360e-01  1.14302924e+00  2.09654219e-09  2.59373814e-06 -4.93000621e-12  2.37871673e-01  2.37173437e-01  1.33192308e-06 -8.86236204e-08 
 2.90000000e-02  2.56715240e-06  2.65707054e-08  3.61713348e-01  1.14302924e+00  2.09654219e-09  2.59373805e-06 -4.93718270e-12  2.37871670e-01  2.37173434e-01  1.37226581e-06 -8.40292145e-08 
 3.00000000e-02  2.56715243e-06  2.65707604e-08  3.61713358e-01  1.14302924e+00  2.09654219e-09  2.59373812e-06 -4.92344452e-12  2.37871673e-01  2.37173433e-01  1.41143604e-06 -7.96354103e-08 
 3.10000000e-02  2.56715243e-06  2.65707370e-08  3.61713357e-01  1.14302924e+00  2.09654219e-09  2.59373811e-06 -4.93537288e-12  2.37871673e-01  2.37173434e-01  1.44944937e-06 -7.54361388e-08 
 3.20000000e-02  2.56715239e-06  2.65707703e-08  3.61713352e-01  1.14302924e+00  2.09654219e-09  2.59373808e-06 -4.93140307e-12  2.37871671e-01  2.37173432e-01  1.48632185e-06 -7.14248243e-08 
 3.30000000e-02  2.56715242e-06  2.65707598e-08  3.61713357e-01  1.14302924e+00  2.09654219e-09  2.59373810e-06 -4.93160149e-12  2.37871672e-01  2.37173433e-01  1.52207022e-06 -6.75952663e-08 
 3.40000000e-02  2.56715249e-06  2.65707162e-08  3.61713355e-01  1.14302924e+00  2.09654219e-09  2.59373814e-06 -4.93294923e-12  2.37871671e-01  2.37173435e-01  1.55671175e-06 -6.39409662e-08 
 3.50000000e-02  2.56715249e-06  2.65707265e-08  3.61713353e-01  1.14302924e+00  2.09654219e-09  2.59373814e-06 -4.93402796e-12  2.37871670e-01  2.37173433e-01  1.59026418e-06 -6.04554452e-08 
 3.60000000e-02  2.56715249e-06  2.65707365e-08  3.61713357e-01  1.14302924e+00  2.09654219e-09  2.59373815e-06 -4.93869500e-12  2.37871671e-01  2.37173434e-01  1.62274587e-06 -5.71324249e-08 
 3.70000000e-02  2.56715247e-06  2.65707523e-08  3.61713354e-01  1.14302924e+00  2.09654219e-09  2.59373814e-06 -4.92843124e-12  2.37871670e-01  2.37173432e-01  1.65417573e-06 -5.39655185e-08 
 3.80000000e-02  2.56715244e-06  2.65707316e-08  3.61713355e-01  1.14302924e+00  2.09654219e-09  2.59373811e-06 -4.92956199e-12  2.37871671e-01  2.37173433e-01  1.68457312e-06 -5.09485647e-08 
 3.90000000e-02  2.56715239e-06  2.65707493e-08  3.61713352e-01  1.14302924e+00  2.09654219e-09  2.59373807e-06 -4.93808590e-12  2.37871671e-01  2.37173432e-01  1.71395794e-06 -4.80751884e-08 
 4.00000000e-02  2.56715247e-06  2.65707401e-08  3.61713359e-01  1.14302924e+00  2.09654219e-09  2.59373815e-06 -4.92864015e-12  2.37871672e-01  2.37173434e-01  1.74235060e-06 -4.53394602e-08 
 4.10000000e-02  2.56715244e-06  2.65707198e-08  3.61713355e-01  1.14302924e+00  2.09654219e-09  2.59373811e-06 -4.93734457e-12  2.37871671e-01  2.37173435e-01  1.76977171e-06 -4.27353382e-08 
 4.20000000e-02  2.56715254e-06  2.65707443e-08  3.61713365e-01  1.14302924e+00  2.09654219e-09  2.59373824e-06 -4.92415527e-12  2.37871673e-01  2.37173433e-01  1.79624266e-06 -4.02568993e-08 
 4.30000000e-02  2.56715239e-06  2.65707133e-08  3.61713348e-01  1.14302924e+00  2.09654219e-09  2.59373804e-06 -4.92983013e-12  2.37871670e-01  2.37173434e-01  1.82178475e-06 -3.78985204e-08 
 4.40000000e-02  2.56715247e-06  2.65707501e-08  3.61713362e-01  1.14302924e+00  2.09654219e-09  2.59373815e-06 -4.93434584e-12  2.37871674e-01  2.37173435e-01  1.84642011e-06 -3.56544754e-08 
 4.50000000e-02  2.56715233e-06  2.65707331e-08  3.61713350e-01  1.14302924e+00  2.09654219e-09  2.59373801e-06 -4.92820200e-12  2.37871672e-01  2.37173433e-01  1.87017070e-06 -3.35195104e-08 
 4.60000000e-02  2.56715241e-06  2.65707491e-08  3.61713351e-01  1.14302924e+00  2.09654219e-09  2.59373810e-06 -4.92914111e-12  2.37871670e-01  2.37173431e-01  1.89305920e-06 -3.14882298e-08 
 4.70000000e-02  2.56715242e-06  2.65707207e-08  3.61713351e-01  1.14302924e+00  2.09654219e-09  2.59373808e-06 -4.94092167e-12  2.37871670e-01  2.37173434e-01  1.91510806e-06 -2.95556667e-08 
 4.80000000e-02  2.56715238e-06  2.65707696e-08  3.61713351e-01  1.14302924e+00  2.09654219e-09  2.59373807e-06 -4.93153329e-12  2.37871670e-01  2.37173432e-01  1.93634009e-06 -2.77166945e-08 
 4.90000000e-02  2.56715240e-06  2.65707390e-08  3.61713355e-01  1.14302924e+00  2.09654219e-09  2.59373808e-06 -4.93280597e-12  2.37871672e-01  2.37173434e-01  1.95677829e-06 -2.59668606e-08 
 5.00000000e-02  2.56715241e-06  2.65707513e-08  3.61713351e-01  1.14302924e+00  2.09654219e-09  2.59373808e-06 -4.93326836e-12  2.37871670e-01  2.37173433e-01  1.97644553e-06 -2.43014114e-08 
 5.10000000e-02  2.56715251e-06  2.65707228e-08  3.61713357e-01  1.14302924e+00  2.09654219e-09  2.59373817e-06 -4.93633106e-12  2.37871671e-01  2.37173433e-01  1.99536499e-06 -2.27160933e-08 
 5.20000000e-02  2.56715246e-06  2.65707174e-08  3.61713355e-01  1.14302924e+00  2.09654219e-09  2.59373814e-06 -4.93537143e-12  2.37871670e-01  2.37173433e-01  2.01355938e-06 -2.12066986e-08 
 5.30000000e-02  2.56715246e-06  2.65707360e-08  3.61713358e-01  1.14302924e+00  2.09654219e-09  2.59373815e-06 -4.93142815e-12  2.37871672e-01  2.37173433e-01  2.03105176e-06 -1.97691246e-08 
 5.40000000e-02  2.56715239e-06  2.65707400e-08  3.61713350e-01  1.14302924e+00  2.09654219e-09  2.59373807e-06 -4.92346590e-12  2.37871670e-01  2.37173432e-01  2.04786476e-06 -1.83996482e-08 
 5.50000000e-02  2.56715244e-06  2.65707277e-08  3.61713352e-01  1.14302924e+00  2.09654219e-09  2.59373811e-06 -4.93111543e-12  2.37871670e-01  2.37173433e-01  2.06402118e-06 -1.70946897e-08 
 5.60000000e-02  2.56715235e-06  2.65707439e-08  3.61713345e-01  1.14302924e+00  2.09654219e-09  2.59373802e-06 -4.93333417e-12  2.37871669e-01  2.37173431e-01  2.07954316e-06 -1.58506811e-08 
 5.70000000e-02  2.56715236e-06  2.65707477e-08  3.61713351e-01  1.14302924e+00  2.09654219e-09  2.59373806e-06 -4.92548361e-12  2.37871671e-01  2.37173431e-01  2.09445297e-06 -1.46643609e-08 
 5.80000000e-02  2.56715247e-06  2.65707502e-08  3.61713362e-01  1.14302924e+00  2.09654219e-09  2.59373816e-06 -4.93198323e-12  2.37871674e-01  2.37173434e-01  2.10877248e-06 -1.35325924e-08 
 5.90000000e-02  2.56715244e-06  2.65707468e-08  3.61713358e-01  1.14302924e+00  2.09654219e-09  2.59373811e-06 -4.92720165e-12  2.37871673e-01  2.37173434e-01  2.12252300e-06 -1.24524235e-08 
 6.00000000e-02  2.56715244e-06  2.65707127e-08  3.61713351e-01  1.14302924e+00  2.09654219e-09  2.59373809e-06 -4.92975771e-12  2.37871670e-01  2.37173433e-01  2.13572572e-06 -1.14210683e-08 
 6.10000000e-02  2.56715241e-06  2.65707447e-08  3.61713353e-01  1.14302924e+00  2.09654219e-09  2.59373808e-06 -4.92762975e-12  2.37871671e-01  2.37173433e-01  2.14840132e-06 -1.04357492e-08 
 6.20000000e-02  2.56715240e-06  2.65707258e-08  3.61713352e-01  1.14302924e+00  2.09654219e-09  2.59373808e-06 -4.93123657e-12  2.37871671e-01  2.37173433e-01  2.16057006e-06 -9.49407131e-09 
 6.30000000e-02  2.56715250e-06  2.65707268e-08  3.61713359e-01  1.14302924e+00  2.09654219e-09  2.59373817e-06 -4.94010274e-12  2.37871672e-01  2.37173434e-01  2.17225190e-06 -8.59358940e-09 
 6.40000000e-02  2.56715248e-06  2.65707126e-08  3.61713353e-01  1.14302924e+00  2.09654219e-09  2.59373813e-06 -4.92619491e-12  2.37871670e-01  2.37173434e-01  2.18346600e-06 -7.73208120e-09 
 6.50000000e-02  2.56715243e-06  2.65707399e-08  3.61713351e-01  1.14302924e+00  2.09654219e-09  2.59373810e-06 -4.93081381e-12  2.37871670e-01  2.37173432e-01  2.19423116e-06 -6.90733959e-09 
 6.60000000e-02  2.56715243e-06  2.65707302e-08  3.61713351e-01  1.14302924e+00  2.09654219e-09  2.59373811e-06 -4.93517682e-12  2.37871670e-01  2.37173432e-01  2.20456585e-06 -6.11750339e-09 
 6.70000000e-02  2.56715254e-06  2.65707150e-08  3.61713357e-01  1.14302924e+00  2.09654219e-09  2.59373819e-06 -4.93108587e-12  2.37871670e-01  2.37173435e-01  2.21448790e-06 -5.36057954e-09 
 6.80000000e-02  2.56715245e-06  2.65707264e-08  3.61713350e-01  1.14302924e+00  2.09654219e-09  2.59373810e-06 -4.93164164e-12  2.37871669e-01  2.37173432e-01  2.22401425e-06 -4.63473149e-09 
 6.90000000e-02  2.56715240e-06  2.65707357e-08  3.61713352e-01  1.14302924e+00  2.09654219e-09  2.59373808e-06 -4.93084397e-12  2.37871671e-01  2.37173433e-01  2.23316179e-06 -3.93839139e-09 
 7.00000000e-02  2.56715242e-06  2.65707194e-08  3.61713355e-01  1.14302924e+00  2.09654219e-09  2.59373810e-06 -4.92474861e-12  2.37871671e-01  2.37173434e-01  2.24194677e-06 -3.26995231e-09 
 7.10000000e-02  2.56715239e-06  2.65707628e-08  3.61713351e-01  1.14302924e+00  2.09654219e-09  2.59373808e-06 -4.93443332e-12  2.37871670e-01  2.37173432e-01  2.25038461e-06 -2.62776068e-09 
 7.20000000e-02  2.56715250e-06  2.65707100e-08  3.61713358e-01  1.14302924e+00  2.09654219e-09  2.59373815e-06 -4.92822869e-12  2.37871672e-01  2.37173437e-01  2.25849054e-06 -2.01074335e-09 
 7.30000000e-02  2.56715246e-06  2.65707420e-08  3.61713355e-01  1.14302924e+00  2.09654219e-09  2.59373814e-06 -4.93733942e-12  2.37871671e-01  2.37173432e-01  2.26627877e-06 -1.41719880e-09 
 7.40000000e-02  2.56715244e-06  2.65707091e-08  3.61713353e-01  1.14302924e+00  2.09654219e-09  2.59373811e-06 -4.91313974e-12  2.37871671e-01  2.37173435e-01  2.27376344e-06 -8.46179793e-10 
 7.50000000e-02  2.56715246e-06  2.65707400e-08  3.61713357e-01  1.14302924e+00  2.09654219e-09  2.59373813e-06 -4.92060648e-12  2.37871672e-01  2.37173434e-01  2.28095791e-06 -2.96229041e-10 
 7.60000000e-02  2.56715246e-06  2.65707324e-08  3.61713354e-01  1.14302924e+00  2.09654219e-09  2.59373812e-06 -4.94603520e-12  2.37871671e-01  2.37173434e-01  2.28787506e-06  2.33516539e-10 
 7.70000000e-02  2.56715244e-06  2.65707515e-08  3.61713358e-01  1.14302924e+00  2.09654219e-09  2.59373811e-06 -4.93389365e-12  2.37871673e-01  2.37173435e-01  2.29452720e-06  7.44248219e-10 
 7.80000000e-02  2.56715241e-06  2.65707304e-08  3.61713354e-01  1.14302924e+00  2.09654219e-09  2.59373809e-06 -4.93497517e-12  2.37871672e-01  2.37173434e-01  2.30092620e-06  1.23683619e-09 
 7.90000000e-02  2.56715243e-06  2.65707446e-08  3.61713354e-01  1.14302924e+00  2.09654219e-09  2.59373811e-06 -4.92496241e-12  2.37871671e-01  2.37173434e-01  2.30708342e-06  1.71233094e-09 
 8.00000000e-02  2.56715244e-06  2.65707091e-08  3.61713355e-01  1.14302924e+00  2.09654219e-09  2.59373810e-06 -4.93854727e-12  2.37871672e-01  2.37173435e-01  2.31300972e-06  2.17144658e-09 
 8.10000000e-02  2.56715237e-06  2.65707254e-08  3.61713350e-01  1.14302924e+00  2.09654219e-09  2.59373805e-06 -4.93583848e-12  2.37871671e-01  2.37173433e-01  2.31871537e-06  2.61523225e-09 
 8.20000000e-02  2.56715246e-06  2.65707257e-08  3.61713354e-01  1.14302924e+00  2.09654219e-09  2.59373813e-06 -4.93038573e-12  2.37871671e-01  2.37173434e-01  2.32421054e-06  3.04425463e-09 
 8.30000000e-02  2.56715243e-06  2.65707393e-08  3.61713351e-01  1.14302924e+00  2.09654219e-09  2.59373811e-06 -4.93355813e-12  2.37871670e-01  2.37173432e-01  2.32950442e-06  3.45941054e-09 
 8.40000000e-02  2.56715245e-06  2.65707449e-08  3.61713355e-01  1.14302924e+00  2.09654219e-09  2.59373812e-06 -4.91970756e-12  2.37871671e-01  2.37173433e-01  2.33460632e-06  3.86123222e-09 
 8.50000000e-02  2.56715248e-06  2.65707242e-08  3.61713356e-01  1.14302924e+00  2.09654219e-09  2.59373814e-06 -4.93018264e-12  2.37871671e-01  2.37173434e-01  2.33952471e-06  4.25042690e-09 
 8.60000000e-02  2.56715242e-06  2.65707215e-08  3.61713356e-01  1.14302924e+00  2.09654219e-09  2.59373809e-06 -4.93764331e-12  2.37871673e-01  2.37173436e-01  2.34426780e-06  4.62764072e-09 
 8.70000000e-02  2.56715248e-06  2.65707177e-08  3.61713352e-01  1.14302924e+00  2.09654219e-09  2.59373813e-06 -4.93131546e-12  2.37871669e-01  2.37173433e-01  2.34884368e-06  4.99345076e-09 
 8.80000000e-02  2.56715244e-06  2.65707364e-08  3.61713350e-01  1.14302924e+00  2.09654219e-09  2.59373809e-06 -4.93144220e-12  2.37871669e-01  2.37173433e-01  2.35325958e-06  5.34840106e-09 
 8.90000000e-02  2.56715248e-06  2.65706906e-08  3.61713353e-01  1.14302924e+00  2.09654219e-09  2.59373812e-06 -4.92776727e-12  2.37871670e-01  2.37173436e-01  2.35752278e-06  5.69289216e-09 
 9.00000000e-02  2.56715244e-06  2.65707274e-08  3.61713352e-01  1.14302924e+00  2.09654219e-09  2.59373810e-06 -4.92848331e-12  2.37871670e-01  2.37173434e-01  2.36164001e-06  6.02765482e-09 
 9.10000000e-02  2.56715247e-06  2.65707104e-08  3.61713354e-01  1.14302924e+00  2.09654219e-09  2.59373813e-06 -4.93895466e-12  2.37871670e-01  2.37173434e-01  2.36561781e-06  6.35291464e-09 
 9.20000000e-02  2.56715245e-06  2.65707277e-08  3.61713356e-01  1.14302924e+00  2.09654219e-09  2.59373812e-06 -4.92310082e-12  2.37871671e-01  2.37173434e-01  2.36946227e-06  6.66923827e-09 
 9.30000000e-02  2.56715243e-06  2.65707523e-08  3.61713358e-01  1.14302924e+00  2.09654219e-09  2.59373812e-06 -4.92672023e-12  2.37871673e-01  2.37173433e-01  2.37317927e-06  6.97701341e-09 
 9.40000000e-02  2.56715252e-06  2.65707021e-08  3.61713354e-01  1.14302924e+00  2.09654219e-09  2.59373818e-06 -4.93161703e-12  2.37871669e-01  2.37173433e-01  2.37677455e-06  7.27651295e-09 
 9.50000000e-02  2.56715247e-06  2.65707757e-08  3.61713359e-01  1.14302924e+00  2.09654219e-09  2.59373816e-06 -4.92932907e-12  2.37871672e-01  2.37173432e-01  2.38025307e-06  7.56838325e-09 
 9.60000000e-02  2.56715243e-06  2.65707398e-08  3.61713359e-01  1.14302924e+00  2.09654219e-09  2.59373812e-06 -4.93061070e-12  2.37871673e-01  2.37173434e-01  2.38362016e-06  7.85259258e-09 
 9.70000000e-02  2.56715246e-06  2.65707607e-08  3.61713355e-01  1.14302924e+00  2.09654219e-09  2.59373813e-06 -4.93322695e-12  2.37871671e-01  2.37173433e-01  2.38688064e-06  8.12982925e-09 
 9.80000000e-02  2.56715246e-06  2.65707276e-08  3.61713356e-01  1.14302924e+00  2.09654219e-09  2.59373813e-06 -4.94774322e-12  2.37871671e-01  2.37173434e-01  2.39003895e-06  8.40010372e-09 
 9.90000000e-02  2.56715248e-06  2.65707209e-08  3.61713357e-01  1.14302924e+00  2.09654219e-09  2.59373816e-06 -4.92146005e-12  2.37871670e-01  2.37173433e-01  2.39309949e-06  8.66388450e-09 
 1.00000000e-01  2.56715246e-06  2.65707021e-08  3.61713351e-01  1.14302924e+00  2.09654219e-09  2.59373811e-06 -4.93004352e-12  2.37871669e-01  2.37173435e-01  2.39606639e-06  8.92139873e-09 
 1.01000000e-01  2.56715240e-06  2.65707324e-08  3.61713348e-01  1.14302924e+00  2.09654219e-09  2.59373807e-06 -4.93773716e-12  2.37871669e-01  2.37173432e-01  2.39894350e-06  9.17306719e-09 
